"Freq [GHz]","AbsorbanceTM []","AbsorbanceTE []"
75,0.00236571670078656,0.00233721257154917
75.03,0.00239746773134597,0.00236682376076958
75.06,0.00243311316111305,0.00240009850208389
75.09,0.00247335417851446,0.00243766947709068
75.12,0.00251906897851728,0.00248033223569533
75.15,0.00257136743821773,0.0025290950128547
75.18,0.00263166679774951,0.00258524759286438
75.21,0.00270179809781157,0.00265045801301445
75.24,0.00278415853398717,0.00272691074448439
75.27,0.00288193384600466,0.00281750799176606
75.3,0.00299943011399229,0.00292616933848899
75.33,0.003142581111373,0.00305828873451419
75.36,0.00331974601824281,0.00322145083066427
75.39,0.0035430042201845,0.00342658955524255
75.42,0.00383033549818701,0.00368993076259561
75.45,0.00420945157827246,0.00403638929398542
75.48,0.00472487927540832,0.00450581114032755
75.51,0.00545187498195887,0.00516514555611636
75.54,0.00652587089926204,0.00613396749048112
75.57,0.00821089102911832,0.00764308295201033
75.6,0.011078952446368,0.0101858494930098
75.63,0.0165640120304485,0.0149757027096329
75.66,0.0291236229764429,0.0256787171118048
75.69,0.0683744868729624,0.0577061103995623
75.72,0.286840934974244,0.224872263384275
75.75,0.429821837335396,0.491277750524774
75.78,0.0875952986911513,0.0951058945518996
75.81,0.0334256956168205,0.0347048793418155
75.84,0.0178915190460227,0.0182706448948979
75.87,0.0115225849433285,0.0116589531280148
75.9,0.0083295088664006,0.0083384299971162
75.93,0.00651120395440052,0.00644547045112975
75.96,0.0053810584793812,0.00529067288472518
75.99,0.00463243423490123,0.00454380707787727
76.02,0.0041119738749491,0.00403326610206811
76.05,0.00373617150984751,0.00366827610346598
76.08,0.00345644141177937,0.00339812670430639
76.11,0.00324297326135681,0.00319262946535892
76.14,0.00307666272001661,0.00303281120592924
76.17,0.00294481333927143,0.00290621773528399
76.2,0.00283872324563572,0.00280438178840947
76.23,0.00275226847797749,0.00272137709817311
76.26,0.00268103915054108,0.00265295281504185
76.29,0.00262179509727234,0.0025959948067058
76.32,0.00257211283841441,0.00254817928956852
76.35,0.00253015075072804,0.00250774383713315
76.38,0.00249448930921592,0.00247333228606283
76.41,0.00246402019167746,0.00244388743576762
76.44,0.00243786789557243,0.00241857539815882
76.47,0.00241533342023326,0.0023967313499712
76.5,0.00239585319758118,0.00237782003394627
76.53,0.00237896873322885,0.0023614065962958
76.56,0.00236430388452546,0.00234713478105431
76.59,0.00235154765961743,0.00233471043515276
76.62,0.00234044105856335,0.00232388889680546
76.65,0.00233076690863143,0.00231446525756696
76.68,0.00232234194195202,0.00230626677462265
76.71,0.00231501056950445,0.00229914690856059
76.74,0.0023086399507728,0.00229298060193028
76.77,0.00230311606157263,0.00228766051322271
76.8,0.00229834053739641,0.0022830939928401
76.83,0.00229422812384505,0.00227920063971077
76.86,0.00229070460659686,0.00227591031649199
76.89,0.00228770512135756,0.00227316152805357
76.92,0.00228517276854734,0.00227090009133135
76.95,0.00228305747263091,0.00226907803909415
76.98,0.00228131503956663,0.00226765271315321
77.01,0.00227990637624786,0.00226658601258201
77.04,0.00227879684109245,0.00226584376738259
77.07,0.00227795570441491,0.0022653952173437
77.1,0.00227735569801624,0.00226521257635615
77.13,0.00227697263986038,0.00226527066877058
77.16,0.00227678512119811,0.0022655466257363
77.19,0.00227677424596739,0.00226601963181117
77.22,0.00227692341439989,0.00226667071416642
77.25,0.00227721814404713,0.00226748256792098
77.28,0.00227764592257551,0.00226843941221189
77.31,0.00227819608748281,0.00226952687240156
77.34,0.0022788597292358,0.00227073188507454
77.37,0.00227962961437345,0.00227204262255032
77.4,0.00228050012569581,0.00227344843416488
77.43,0.00228146721751521,0.00227493980238713
77.46,0.00228252838399157,0.00227650831191972
77.49,0.00228368263850565,0.0022781466297922
77.52,0.00228493050321033,0.00227984849568219
77.55,0.00228627400727477,0.0022816087210128
77.58,0.00228771669273942,0.00228342319581665
77.61,0.00228926362710569,0.00228528890253332
77.64,0.00229092142194942,0.0022872039360573
77.67,0.00229269825715783,0.00228916752968022
77.7,0.00229460390938463,0.0022911800855514
77.73,0.00229664978499799,0.00229324320995694
77.76,0.00229884895716237,0.00229535975307116
77.79,0.00230121620554069,0.00229753385171139
77.82,0.00230376805959043,0.00229977097605982
77.85,0.00230652284456045,0.00230207797950022
77.88,0.00230950072936131,0.00230446315073907
77.91,0.00231272377744829,0.00230693626936862
77.94,0.0023162159988338,0.00230950866301216
77.97,0.00232000340432681,0.00231219326713572
78,0.00232411406114763,0.00231500468670709
