"Freq [GHz]","AbsorbanceTM []","AbsorbanceTE []"
70,0.467630100200769,0.0247518098977534
70.05,0.954340460298057,0.0319176286176188
70.1,0.673484318348176,0.0434580857523594
70.15,0.285300311920513,0.0638315223453334
70.2,0.140537384578439,0.104715387129875
70.25,0.081559923883332,0.203249997026497
70.3,0.0531427984676979,0.496267118282809
70.35,0.0376020716423535,0.981299500734317
70.4,0.0282904296192528,0.492019314536936
70.45,0.0223223873445616,0.198049862272789
70.5,0.0182965783060456,0.100509029035433
70.55,0.0154703366620562,0.0605762194081872
70.6,0.0134219445933297,0.0409477606242693
70.65,0.0118982166276496,0.0299939161187844
70.7,0.0107400352133814,0.0233060778822318
70.75,0.00984351336428591,0.0189432637977706
70.8,0.00913860261374777,0.0159495182364986
70.85,0.00857675290659288,0.0138117759405965
70.9,0.00812350671790507,0.012235419144233
70.95,0.00775389943004501,0.0110418112089576
71,0.00744951570428509,0.0101176926055992
71.05,0.00719655520891294,0.00938852815649405
71.1,0.00698453142337763,0.00880369583986929
71.15,0.00680537775779466,0.00832787421478942
71.2,0.00665282178623017,0.00793583594709535
71.25,0.00652193963334513,0.00760919273488092
71.3,0.00640883368779255,0.00733429951443931
71.35,0.00631039618512852,0.00710086963310841
71.4,0.00622413351387152,0.00690103848830281
71.45,0.00614803407767073,0.00672871723008905
71.5,0.00608046781210769,0.00657913833590229
71.55,0.00602010898697058,0.00644853070160112
71.6,0.00596587633164869,0.00633388377733557
71.65,0.00591688618286346,0.00623277395421284
71.7,0.00587241551830142,0.00614323514055792
71.75,0.0058318725637112,0.00606366114949874
71.8,0.0057947732520004,0.00599273128476852
71.85,0.0057607222409467,0.00592935304695608
71.9,0.00572939750898471,0.00587261761523072
71.95,0.00570053778028956,0.00582176496131537
72,0.00567393220182144,0.00577615629523764
72.05,0.00564941182524736,0.00573525214265802
72.1,0.00562684254419321,0.0056985947840491
72.15,0.00560611921192211,0.00566579409884527
72.2,0.00558716072259935,0.00563651608793381
72.25,0.00556990588282746,0.00561047351694766
72.3,0.00555430993563366,0.00558741825072306
72.35,0.005540341625208,0.00556713494397232
72.4,0.00552798071314109,0.00554943582688394
72.45,0.00551721587264797,0.00553415637874444
72.5,0.00550804290155149,0.00552115172619849
72.55,0.00550046320545239,0.00551029363577527
72.6,0.00549448251050988,0.0055014679954748
72.65,0.00549010977370556,0.00549457270188081
72.7,0.00548735626236951,0.0054895158834668
72.75,0.00548623478125587,0.00548621440529262
72.8,0.00548675902777596,0.00548459260886558
72.85,0.00548894306054148,0.00548458125039564
72.9,0.00549280086806692,0.0054861166062331
72.95,0.00549834602730848,0.00548913972011211
73,0.00550559144386686,0.00549359577130804
73.05,0.00551454916693339,0.00549943354586668
73.1,0.00552523027404006,0.00550660499635847
73.15,0.00553764482228292,0.00551506487819042
73.2,0.00555180186388382,0.00552477045223831
73.25,0.00556770952567731,0.00553568124556103
73.3,0.0055853751534547,0.00554775886320924
73.35,0.00560480552453013,0.00556096684611895
73.4,0.00562600713305461,0.00557527057038198
73.45,0.00564898655586343,0.00559063718514019
73.5,0.00567375090957034,0.00560703558732334
73.55,0.0057003084130326,0.00562443643217869
73.6,0.00572866907509861,0.005642812180638
73.65,0.00575884553351302,0.00566213718547837
73.7,0.00579085407987479,0.00568238782035035
73.75,0.00582471591779965,0.00570354265855788
73.8,0.00586045871670227,0.0057255827106385
73.85,0.00589811854715283,0.00574849173510716
73.9,0.00593774231518651,0.00577225664233916
73.95,0.00597939085780574,0.00579686801968915
74,0.00602314292834516,0.00582232081888023
74.05,0.00606910039653352,0.00584861526432157
74.1,0.00611739513397525,0.00587575806895257
74.15,0.00616819827774295,0.00590376408611948
74.2,0.00622173291291783,0.0059326585930578
74.25,0.00627829177203865,0.00596248050955683
74.3,0.00633826246585178,0.00599328703514501
74.35,0.00640216431256579,0.00602516049632817
74.4,0.00647070355532586,0.00605821874405355
74.45,0.00654485871500055,0.00609263145488359
74.5,0.00662601726486056,0.00612864665322221
74.55,0.00671620373714565,0.00616663578497434
74.6,0.00681847969710236,0.00620717441343999
74.65,0.0069376885044089,0.00625119615895842
74.7,0.00708194995371136,0.00630031060016623
74.75,0.00726596338089314,0.00635753042882181
74.8,0.00751931636330827,0.00642917975529789
74.85,0.00791163296134012,0.00653098939385355
74.9,0.00865460938582197,0.0067146520370398
74.95,0.0108371465406228,0.00727874840544451
75,0.0374596457906541,0.0322808824707712
75.05,0.00295397977710499,0.0064352659436816
75.1,0.00485611553234411,0.00628890420193173
75.15,0.00554936160322694,0.00635062751831317
75.2,0.00592716625880918,0.00641284862212355
75.25,0.00617702260857778,0.0064690823385708
75.3,0.0063625942193436,0.00652095897302818
75.35,0.00651144705383122,0.00657001751055075
75.4,0.0066374588854885,0.00661729162169589
75.45,0.00674838101301822,0.00666346030536924
75.5,0.00684888742054468,0.00670898088053562
75.55,0.00694196878904019,0.00675417236300613
75.6,0.00702963256270173,0.00679926560427746
75.65,0.00711328121652455,0.00684443378905708
75.7,0.00719392902246407,0.00688981144849499
75.75,0.0072723324187981,0.0069355066405079
75.8,0.00734907165697796,0.0069816089610939
75.85,0.00742460372485076,0.00702819494377949
75.9,0.00749929768210533,0.00707533178052111
75.95,0.00757345886790761,0.00712307993832506
76,0.00764734586304472,0.00717149503315473
76.05,0.00772118261397881,0.0072206291948157
76.1,0.00779516725265927,0.00727053207647332
76.15,0.0078694786138751,0.0073212516122978
76.2,0.00794428111904644,0.007372834594219
76.25,0.00801972848182131,0.00742532711711918
76.3,0.00809596655128608,0.00747877492748639
76.35,0.0081731355154524,0.00753322370063192
76.4,0.0082513716247038,0.0075887192650661
76.45,0.0083308085508802,0.00764530778742412
76.5,0.00841157846745133,0.00770303592818855
76.55,0.00849381291486129,0.00776195097632204
76.6,0.00857764349901291,0.00782210096850555
76.65,0.00866320245985475,0.00788353479760073
76.7,0.00875062313963726,0.00794630231486348
76.75,0.00884004037236275,0.00801045442769954
76.8,0.00893159081433292,0.00807604319712918
76.85,0.00902541322893724,0.00814312193525868
76.9,0.00912164873974586,0.00821174530624957
76.95,0.00922044106128672,0.00828196943115533
77,0.00932193671737358,0.00835385199874061
77.05,0.00942628525505884,0.00842745238344766
77.1,0.00953363946113928,0.00850283177121969
77.15,0.00964415558920195,0.00858005329528455
77.2,0.00975799360275154,0.00865918218192252
77.25,0.00987531744193637,0.008740285908306
77.3,0.00999629531938828,0.00882343437251454
77.35,0.0101211000525538,0.00890870007766476
77.4,0.0102499094387624,0.0089961583308138
77.45,0.0103829066797926,0.00908588745757166
77.5,0.0105202808638063,0.0091779690341931
77.55,0.0106622275118603,0.00927248813798465
77.6,0.0108089491971559,0.00936953361728554
77.65,0.0109606562457604,0.00946919838255278
77.7,0.0111175675279982,0.00957157971990574
77.75,0.0112799113506443,0.00967677962898206
77.8,0.0114479264600538,0.00978490518619202
77.85,0.0116218631680974,0.00989606893572381
77.9,0.0118019846130009,0.0100103893099477
77.95,0.0119885681683896,0.0101279910814822
78,0.0121819070146021,0.0102490058489874
78.05,0.0123823118875422,0.010373572559179
78.1,0.0125901130220675,0.0105018380683367
78.15,0.012805662306447,0.0106339577451549
78.2,0.0130293356678264,0.0107700961192412
78.25,0.0132615357081052,0.0109104275780515
78.3,0.0135026946124318,0.0110551371168334
78.35,0.0137532773521655,0.0112044211449235
78.4,0.0140137852075848,0.0113584883542042
78.45,0.0142847596346479,0.0115175606538721
78.5,0.0145667865035487,0.0116818741784374
78.55,0.0148605007351714,0.0118516803739477
78.6,0.0151665913650794,0.0120272471709442
78.65,0.0154858070624587,0.0122088602508716
78.7,0.0158189621330302,0.0123968244154844
78.75,0.0161669430329214,0.0125914650686478
78.8,0.0165307154187796,0.0127931298214062
78.85,0.0169113317564124,0.0130021902328032
78.9,0.0173099395045203,0.0132190436997562
78.95,0.0177277898831089,0.0134441155114629
79,0.0181662472256741,0.0136778610856996
79.05,0.0186267988991669,0.0139207684059992
79.1,0.0191110657563364,0.0141733606815103
79.15,0.019620813058809,0.01443619925451
79.2,0.0201579617727535,0.0147098867827391
79.25,0.0207246000928469,0.0149950707283032
79.3,0.0213229949875819,0.0152924471885434
79.35,0.021955603477373,0.0156027651092516
79.4,0.0226250832495033,0.0159268309261266
79.45,0.0233343020728176,0.0162655136864434
79.5,0.0240863452909658,0.0166197507109002
79.55,0.0248845204293745,0.0169905538628922
79.6,0.0257323576345964,0.0173790165039259
79.65,0.0266336042436424,0.0177863212229321
79.7,0.0275922112322535,0.0182137484430875
79.75,0.0286123085595461,0.0186626860221667
79.8,0.029698165464128,0.0191346399826915
79.85,0.0308541304828945,0.0196312465270754
79.9,0.0320845442543537,0.0201542855177983
79.95,0.0333936158787898,0.0207056956308347
80,0.0347852505274653,0.0212875914228917
