"Freq [GHz]","AbsorbanceTM []","AbsorbanceTE []"
60,0.00782353579366646,0.0082096913778642
60.05,0.00764850998242961,0.00805159604921735
60.1,0.00747851191644111,0.00792330843866651
60.15,0.00732115406788303,0.00784395475497612
60.2,0.00719588591344578,0.00786091815821954
60.25,0.00716152028639527,0.00811233865953609
60.3,0.00746132831066915,0.00915158816666906
60.35,0.0102325253735787,0.0156979154415064
60.4,0.0422497079745742,0.0796839814619094
60.45,0.00662944887293815,0.00689402750832435
60.5,0.00781764488509828,0.00756407073692766
60.55,0.0298111662882032,0.0288706316542727
60.6,0.0428666091949612,0.0492859595175602
60.65,0.0183468071356282,0.0206428923651434
60.7,0.0126843985823369,0.0138131815240217
60.75,0.010476099997896,0.0111971020934197
60.8,0.0093201600219458,0.00984891752154315
60.85,0.0086041307848892,0.00902258640159537
60.9,0.00811113195038504,0.00845667318202081
60.95,0.00774726654113922,0.00803919457372637
61,0.00746617212507117,0.00771551521487246
61.05,0.00724287635868548,0.00745663478348313
61.1,0.00706321777618213,0.0072463950332825
61.15,0.00691906551209154,0.00707566301018525
61.2,0.00680599741908672,0.00693940863159126
61.25,0.0067221674452016,0.00683510508998364
61.3,0.00666792256431836,0.00676187174531495
61.35,0.00664631611471755,0.00672048621253896
61.4,0.00666576098354388,0.00671576111471439
61.45,0.00674935392246401,0.00676683951118839
61.5,0.00696569581295781,0.00694289143171889
61.55,0.00752306842215855,0.00746888224907349
61.6,0.00899390228014829,0.00895319640089376
61.65,0.0124696504329274,0.0124727181497426
61.7,0.0182918185827385,0.0182536527306288
61.75,0.0234341547635194,0.0233915062780096
61.8,0.0243604588009131,0.0245240580023515
61.85,0.0218602255716394,0.0221517761511902
61.9,0.0184686726201841,0.0186297512574848
61.95,0.015535894250356,0.0154247124963938
62,0.013338164873228,0.01295481647076
62.05,0.0117678868330316,0.0111781874137763
62.1,0.0106598065439316,0.00994359023576441
62.15,0.00987953464840841,0.00911070830199479
62.2,0.00933242331784312,0.00857465165047289
62.25,0.00895460356624012,0.00826242437986613
62.3,0.00870330413265308,0.00812445547246121
62.35,0.0085497073820926,0.00812728378243477
62.4,0.00847418194440575,0.00824830243472885
62.45,0.0084631952003339,0.00847220403842108
62.5,0.00850732008509536,0.00878862023536231
62.55,0.00796305337978354,0.00836435162152349
62.6,0.00753878456748369,0.00802028098817675
62.65,0.00721775136286162,0.0077464096173665
62.7,0.00698438109369548,0.00753324256258925
62.75,0.00682431669078798,0.00737183894904614
62.8,0.0067244165280218,0.00725384497185888
62.85,0.00667273417268688,0.0071715124649947
62.9,0.00665848333204111,0.00711770575577364
62.95,0.0066719925060158,0.00708589929960124
63,0.00670465312164226,0.00707016833838336
63.05,0.00674886425644539,0.00706517456482381
63.1,0.00679797647128721,0.007066148521363
63.15,0.00684623677621476,0.00706887023123581
63.2,0.00688873634356868,0.00706964935561749
63.25,0.00692136226537754,0.00706530600811606
63.3,0.00694075442055608,0.00705315323793532
63.35,0.00694426837378004,0.00703098212618725
63.4,0.00692994517473111,0.00699705043586152
63.45,0.00689648897125161,0.00695007582967067
63.5,0.00684325351043236,0.00688923484618797
63.55,0.00677023890502215,0.00681416913949962
63.6,0.00667810053872364,0.00672500100344886
63.65,0.00656817274499089,0.00662236101076374
63.7,0.00644251104145155,0.0065074318575965
63.75,0.00630395841812159,0.00638201446347553
63.8,0.00615624375288859,0.00624862545081717
63.85,0.00600412431151431,0.00611064000405048
63.9,0.00585359018534148,0.00597250194617838
63.95,0.00571215751732712,0.00584003563767732
64,0.00558929111539486,0.00572091532739916
64.05,0.005497017975995,0.0056253824235778
64.1,0.00545082464554825,0.00556735856758783
64.15,0.00547097729923152,0.0055661941818782
64.2,0.00558446890152242,0.00564942581879113
64.25,0.00582789695013619,0.00585705752420618
64.3,0.00625180400601744,0.00624782364847964
64.35,0.00692803577041989,0.00690694722576413
64.4,0.00796764495513547,0.00795269908666252
64.45,0.00959196863356138,0.00955305235118975
64.5,0.0124975442150927,0.0121622053105663
64.55,0.0198796404659346,0.0183443192519412
64.6,0.0497973742292228,0.0423129720012172
64.65,0.154171715065812,0.134105434086128
64.7,0.0901748836120271,0.105050551424918
64.75,0.0393093407565096,0.0443339033314385
64.8,0.0225354588850524,0.024600768339168
64.85,0.015554209160508,0.0167862406172736
64.9,0.0122471369342863,0.0131275945986467
64.95,0.0106803950175333,0.011307600559364
65,0.010091605908579,0.0104639123767859
65.05,0.00665725561093455,0.00676690124427803
65.1,0.00587841122925536,0.00592443447342106
65.15,0.00614961660513158,0.00619879182132854
65.2,0.00673615999221411,0.00680527481641369
65.25,0.00731406498876619,0.00740175921857
65.3,0.00775568150548611,0.00785490134663347
65.35,0.00802730011529273,0.00813007962965073
65.4,0.00813920271604851,0.0082383455503563
65.45,0.00812096731665357,0.00821047342518244
65.5,0.00800926026342286,0.00808426065181833
65.55,0.00784193988827087,0.0078984600818377
65.6,0.00765540012561639,0.00769008913111591
65.65,0.00748358585378883,0.00749347258082012
65.7,0.00735785368044684,0.00734016732849951
65.75,0.00730721610659568,0.00725930737599634
65.8,0.00735866986906875,0.00727808781189476
65.85,0.00753734844975995,0.00742216047963107
65.9,0.00786618336987988,0.0077156657292673
65.95,0.00836462395281945,0.00818046067625811
66,0.00904581418205641,0.00883379571000609
66.05,0.00991174993302602,0.00968329014861669
66.1,0.0109473214454123,0.0107181329512662
66.15,0.0121191166625005,0.0118985852114779
66.2,0.0133954927926628,0.0131597264024165
66.25,0.014809157761155,0.0144756060679476
66.3,0.0165345814673427,0.0160114529458451
66.35,0.0188427586886918,0.0181550388310429
66.4,0.0218591706748263,0.021135311314971
66.45,0.0253668463744652,0.0246898533133186
66.5,0.0288792209909937,0.0282662409287425
66.55,0.0318594287161781,0.0313343595888965
66.6,0.0339078594241257,0.0335259061632125
66.65,0.0348612871154407,0.0346803786039639
66.7,0.0347946669284748,0.0348431677256278
66.75,0.0339460744446832,0.0342142801823412
66.8,0.0326188783591245,0.0330718071418677
66.85,0.0311170419629366,0.0317152743160434
66.9,0.0297564331855229,0.0304798409618061
66.95,0.0290790403084372,0.0299785209586431
67,0.0315804599890959,0.0331241206285205
67.05,0.115516775217208,0.133811354400581
67.1,0.0303411198364446,0.0336640188886063
67.15,0.0216678729490718,0.0228928483586983
67.2,0.0197880022211782,0.02066482497706
67.25,0.0186880478207384,0.0194288199854216
67.3,0.0178440941589759,0.0185073235056479
67.35,0.0171416116242662,0.0177507445298778
67.4,0.01653894633075,0.017105851652358
67.45,0.0160143396309963,0.0165460958321062
67.5,0.0155534848647899,0.0160548397796129
67.55,0.0151457469427274,0.015620162044808
67.6,0.0147827444308951,0.0152328962736664
67.65,0.0144576982893408,0.0148857453181133
67.7,0.0141650684845742,0.0145728060168658
67.75,0.0139003153522276,0.0142892725018043
67.8,0.0136597238324074,0.0140312278576457
67.85,0.0134402645264348,0.0137954855483282
67.9,0.0132394793004261,0.0135794624067671
67.95,0.0130553848951586,0.0133810736769502
68,0.0128863906061294,0.0131986446029325
68.05,0.0127312274050176,0.0130308350640883
68.1,0.0125888866100541,0.0128765748554305
68.15,0.0124585666757995,0.0127350078723489
68.2,0.0123396269941601,0.0126054438920994
68.25,0.0122315478363521,0.0124873169482494
68.3,0.0121338957505224,0.012380149519389
68.35,0.0120462938768521,0.0122835219261225
68.4,0.0119683967610882,0.0121970464660411
68.45,0.0118998693438064,0.0121203459239281
68.5,0.0118403698828208,0.0120530361821303
68.55,0.0117895366310997,0.0119947127262823
68.6,0.0117469781458536,0.0119449408985003
68.65,0.0117122671496307,0.0119032497978738
68.7,0.0116849379009126,0.0118691297663904
68.75,0.0116644870628796,0.0118420334307529
68.8,0.0116503780852723,0.0118213802973172
68.85,0.0116420491376172,0.0118065649210266
68.9,0.0116389246513041,0.0117969686883649
68.95,0.0116404305467769,0.0117919752728125
69,0.0116460132382332,0.0117909898368871
69.05,0.0116551625241603,0.011793462070143
69.1,0.0116674384867523,0.0117989131662527
69.15,0.0116825025380444,0.0118069668561026
69.2,0.0117001527645154,0.0118173846264906
69.25,0.0117203637360499,0.011830105266753
69.3,0.0117433309578472,0.0118452888968293
69.35,0.0117695201559206,0.0118633656405391
69.4,0.0117997215974609,0.011885089116686
69.45,0.0118351096542409,0.0119115949254102
69.5,0.0118773078220588,0.0119444643100057
69.55,0.0119284594071951,0.0119857931702002
69.6,0.0119913040831691,0.012038266593159
69.65,0.0120692605030444,0.0121052390484587
69.7,0.0121665151237362,0.0121908203629232
69.75,0.0122881173533277,0.0122999675446543
69.8,0.0124400810699531,0.0124385824629391
69.85,0.0126294924725766,0.012613615303391
69.9,0.0128646241101212,0.0128331736064197
69.95,0.0131550547844488,0.0131066365508827
70,0.0135117948339485,0.0134447739637388
