"Freq [GHz]","AbsorbanceTM []","AbsorbanceTE []"
30,0.000489987408559656,0.00118083633837762
30.01,0.000476229213866253,0.0011764202771376
30.02,0.000462830434367123,0.00117218226765459
30.03,0.000449786324216328,0.00116812020302171
30.04,0.000437092171956976,0.00116423199071658
30.05,0.000424743300500463,0.00116051555261487
30.06,0.000412735067082504,0.00115696882497529
30.07,0.000401062863189861,0.00115358975840019
30.08,0.000389722114527369,0.00115037631784121
30.09,0.000378708280998841,0.0011473264826094
30.1,0.000368016856630571,0.00114443824634114
30.11,0.000357643369519489,0.0011417096169809
30.12,0.000347583381780758,0.00113913861677206
30.13,0.00033783248952135,0.00113672328226311
30.14,0.000328386322715812,0.00113446166423314
30.15,0.000319240545243571,0.00113235182776206
30.16,0.00031039085474327,0.00113039185213726
30.17,0.000301832982613992,0.00112857983089221
30.18,0.000293562693904681,0.0011269138717428
30.19,0.000285575787282055,0.00112539209660312
30.2,0.000277868094950895,0.00112401264154938
30.21,0.00027043548260175,0.00112277365681923
30.22,0.000263273849320345,0.0011216733067666
30.23,0.00025637912751153,0.00112070976983791
30.24,0.000249747282887069,0.00111988123860873
30.25,0.000243374314294775,0.00111918591966487
30.26,0.000237256253740492,0.00111862203367852
30.27,0.000231389166257201,0.0011181878153288
30.28,0.000225769149830524,0.00111788151328118
30.29,0.000220392335328889,0.00111770139017553
30.3,0.000215254886435368,0.00111764572260842
30.31,0.000210352999545971,0.00111771280109474
30.32,0.000205682903691162,0.00111790093004349
30.33,0.000201240860459362,0.0011182084277368
30.34,0.00019702316391379,0.00111863362631126
30.35,0.000193026140472785,0.00111917487169344
30.36,0.000189246148869171,0.00111983052362452
30.37,0.000185679580037235,0.00112059895560523
30.38,0.000182322857005479,0.00112147855485012
30.39,0.000179172434840447,0.00112246772229818
30.4,0.000176224800522595,0.00112356487254894
30.41,0.000173476472869916,0.00112476843385245
30.42,0.000170924002431572,0.00112607684806598
30.43,0.00016856397140097,0.00112748857063572
30.44,0.000166392993510289,0.00112900207055366
30.45,0.000164407713928449,0.00113061583032792
30.46,0.000162604809161637,0.00113232834594479
30.47,0.000160980986981696,0.00113413812687091
30.48,0.000159532986252375,0.00113604369594777
30.49,0.000158257576918008,0.00113804358944736
30.5,0.000157151559822211,0.00114013635696109
30.51,0.000156211766641268,0.00114232056140884
30.52,0.000155435059764564,0.00114459477898532
30.53,0.000154818332187889,0.00114695759913042
30.54,0.000154358507406305,0.00114940762449023
30.55,0.000154052539315774,0.0011519434708952
30.56,0.00015389741208871,0.00115456376730627
30.57,0.000153890140038526,0.00115726715575881
30.58,0.000154027767556131,0.00116005229136817
30.59,0.000154307368981477,0.00116291784228306
30.6,0.000154726048456233,0.00116586248960737
30.61,0.000155280939840186,0.00116888492739775
30.62,0.000155969206612872,0.00117198386263984
30.63,0.000156788041690392,0.00117515801514567
30.64,0.000157734667358467,0.00117840611756048
30.65,0.000158806335167072,0.0011817269153378
30.66,0.000160000325755583,0.00118511916664688
30.67,0.000161313948784048,0.00118858164237456
30.68,0.000162744542771653,0.00119211312605361
30.69,0.000164289475000801,0.00119571241383887
30.7,0.00016594614138532,0.00119937831446337
30.71,0.000167711966360007,0.00120310964920145
30.72,0.000169584402724188,0.0012069052517989
30.73,0.000171560931549686,0.00121076396846265
30.74,0.000173639062020947,0.00121468465777985
30.75,0.000175816331367984,0.00121866619073752
30.76,0.000178090304635337,0.00122270745057207
30.77,0.000180458574691733,0.00122680733286307
30.78,0.000182918761977624,0.00123096474536277
30.79,0.000185468514429687,0.00123517860800904
30.8,0.000188105507364589,0.00123944785288788
30.81,0.000190827443316,0.00124377142416143
30.82,0.000193632051922465,0.00124814827803643
30.83,0.000196517089782633,0.0012525773827059
30.84,0.00019948034035322,0.00125705771833295
30.85,0.000202519613764829,0.00126158827695244
30.86,0.000205632746717033,0.00126616806245605
30.87,0.000208817602376898,0.00127079609057135
30.88,0.000212072070163161,0.00127547138873541
30.89,0.000215394065695262,0.00128019299613313
30.9,0.000218781530594625,0.00128495996358269
30.91,0.000222232432396163,0.00128977135353714
30.92,0.000225744764375646,0.00129462623999854
30.93,0.00022931654541436,0.00129952370847153
30.94,0.000232945819895414,0.00130446285594488
30.95,0.000236630657541426,0.0013094427908249
30.96,0.00024036915325254,0.00131446263285462
30.97,0.000244159427002621,0.00131952151310155
30.98,0.000247999623706474,0.00132461857391664
30.99,0.000251887913038651,0.00132975296884119
31,0.000255822489323543,0.0013349238625856
31.01,0.000259801571375284,0.0013401304309556
31.02,0.000263823402407937,0.00134537186086392
31.03,0.000267886249793237,0.00135064735016444
31.04,0.000271988405032619,0.0013559561077241
31.05,0.000276128183526847,0.00136129735327639
31.06,0.000280303924486192,0.00136667031742888
31.07,0.000284513990751578,0.00137207424156827
31.08,0.000288756768691445,0.00137750837785489
31.09,0.000293030668033434,0.00138297198913895
31.1,0.000297334121683868,0.00138846434887485
31.11,0.000301665585676236,0.00139398474116048
31.12,0.000306023538942157,0.00139953246059976
31.13,0.000310406483192471,0.00140510681227279
31.14,0.00031481294277913,0.00141070711169233
31.15,0.000319241464573738,0.00141633268477148
31.16,0.000323690617763162,0.00142198286771367
31.17,0.000328158993750605,0.00142765700700376
31.18,0.00033264520600329,0.00143335445934356
31.19,0.000337147889872824,0.00143907459157477
31.2,0.000341665702504934,0.00144481678067099
31.21,0.000346197322643294,0.001450580413634
31.22,0.000350741450499847,0.00145636488746237
31.23,0.000355296807631134,0.00146216960911416
31.24,0.000359862136756761,0.00146799399542275
31.25,0.000364436201618301,0.00147383747303953
31.26,0.000369017786841175,0.00147969947839743
31.27,0.000373605697821522,0.00148557945768213
31.28,0.000378198760486947,0.00149147686669038
31.29,0.000382795821243898,0.00149739117086789
31.3,0.000387395746789143,0.0015033218452104
31.31,0.00039199742394036,0.00150926837419019
31.32,0.000396599759528882,0.00151523025173939
31.33,0.000401201680242158,0.00152120698118297
31.34,0.000405802132454558,0.00152719807516455
31.35,0.000410400082114015,0.00153320305562299
31.36,0.000414994514524203,0.00153922145366758
31.37,0.000419584434316111,0.00154525280963969
31.38,0.000424168865173047,0.00155129667293408
31.39,0.000428746849763795,0.00155735260201828
31.4,0.000433317449568205,0.00156342016435429
31.41,0.000437879744737968,0.00156949893634883
31.42,0.000442432833920425,0.00157558850326955
31.43,0.000446975834142438,0.00158168845922269
31.44,0.000451507880663615,0.00158779840709022
31.45,0.000456028126802344,0.00159391795845765
31.46,0.000460535743794455,0.00160004673355707
31.47,0.000465029920675875,0.00160618436124527
31.48,0.000469509864102768,0.00161233047890796
31.49,0.000473974798206434,0.00161848473241477
31.5,0.000478423964445529,0.00162464677605723
31.51,0.000482856621493721,0.00163081627252737
31.52,0.000487272045036069,0.00163699289280528
31.53,0.000491669527650451,0.0016431763161342
31.54,0.00049604837868833,0.00164936622998457
31.55,0.000500407924065804,0.00165556232994424
31.56,0.000504747506168357,0.00166176431970588
31.57,0.000509066483673437,0.00166797191098567
31.58,0.000513364231436442,0.0016741848234928
31.59,0.00051764014029243,0.00168040278482562
31.6,0.000521893616967639,0.00168662553047516
31.61,0.000526124083909507,0.00169285280373277
31.62,0.000530330979099269,0.00169908435560895
31.63,0.000534513755992672,0.00170531994484957
31.64,0.000538671883311137,0.0017115593378203
31.65,0.000542804844892664,0.00171780230845064
31.66,0.000546912139581135,0.00172404863820319
31.67,0.000550993281074774,0.0017302981160171
31.68,0.000555047797765051,0.0017365505382354
31.69,0.000559075232589024,0.00174280570854124
31.7,0.000563075142911207,0.0017490634379288
31.71,0.000567047100368478,0.00175532354463848
31.72,0.000570990690710871,0.00176158585408126
31.73,0.000574905513667456,0.00176785019879644
31.74,0.000578791182809013,0.00177411641839564
31.75,0.000582647325415242,0.00178038435952255
31.76,0.000586473582301683,0.00178665387576049
31.77,0.000590269607708582,0.00179292482761539
31.78,0.000594035069116372,0.00179919708240694
31.79,0.000597769647172286,0.00180547051429125
31.8,0.000601473035477973,0.00181174500412895
31.81,0.000605144940495017,0.0018180204394761
31.82,0.000608785081371854,0.00182429671449602
31.83,0.000612393189834637,0.00183057372993989
31.84,0.000615969010043349,0.00183685139307932
31.85,0.000619512298397962,0.00184312961760336
31.86,0.000623022823500352,0.00184940832366443
31.87,0.000626500365898175,0.0018556874377027
31.88,0.000629944718047559,0.00186196689249163
31.89,0.000633355684114378,0.00186824662702778
31.9,0.000636733079854346,0.00187452658649256
31.91,0.000640076732478345,0.00188080672219582
31.92,0.000643386480512653,0.00188708699152229
31.93,0.000646662173666823,0.00189336735788437
31.94,0.000649903672652163,0.00189964779061691
31.95,0.000653110849155647,0.00190592826503377
31.96,0.000656283585563133,0.00191220876224052
31.97,0.000659421774956037,0.00191848926919747
31.98,0.000662525320867968,0.00192476977857259
31.99,0.000665594137212455,0.00193105028873852
32,0.00066862814815849,0.00193733080373559
32.01,0.000671627287941345,0.00194361133315535
32.02,0.000674591500773869,0.00194989189214223
32.03,0.000677520740693272,0.00195617250130597
32.04,0.000680414971448551,0.00196245318669885
32.05,0.000683274166368042,0.00196873397975994
32.06,0.000686098308182892,0.00197501491721019
32.07,0.000688887388956894,0.00198129604107211
32.08,0.000691641409931387,0.00198757739857802
32.09,0.00069436038136661,0.00199385904210325
32.1,0.000697044322486406,0.00200014102917656
32.11,0.000699693261264178,0.00200642342234958
32.12,0.000702307234349053,0.00201270628919681
32.13,0.000704886286913786,0.00201898970223979
32.14,0.000707430472545956,0.0020252737389157
32.15,0.000709939853130948,0.00203155848153036
32.16,0.000712414498652336,0.0020378440171418
32.17,0.000714854487172012,0.00204413043760787
32.18,0.000717259904619461,0.00205041783945614
32.19,0.000719630844730923,0.00205670632388799
32.2,0.000721967408875979,0.00206299599669124
32.21,0.000724269705945524,0.00206928696818975
32.22,0.000726537852263953,0.00207557935323643
32.23,0.000728771971411968,0.00208187327110465
32.24,0.000730972194143864,0.00208816884547758
32.25,0.000733138658258192,0.00209446620439457
32.26,0.000735271508448543,0.00210076548016869
32.27,0.000737370896257028,0.00210706680941242
32.28,0.000739436979861341,0.00211337033289971
32.29,0.000741469924013249,0.00211967619556686
32.3,0.000743469899898819,0.00212598454645285
32.31,0.000745437085048928,0.00213229553866734
32.32,0.000747371663190388,0.00213860932932397
32.33,0.000749273824116492,0.00214492607946759
32.34,0.000751143763634832,0.00215124595410321
32.35,0.000752981683394549,0.00215756912207576
32.36,0.000754787790766431,0.00216389575603348
32.37,0.000756562298794838,0.00217022603243666
32.38,0.000758305425990868,0.00217656013142142
32.39,0.000760017396297608,0.00218289823683271
32.4,0.000761698438957681,0.00218924053615432
32.41,0.000763348788353269,0.00219558722041879
32.42,0.000764968683971912,0.00220193848423511
32.43,0.000766558370228876,0.00220829452567628
32.44,0.000768118096413861,0.00221465554629596
32.45,0.00076964811651381,0.00222102175100547
32.46,0.000771148689198364,0.00222739334813005
32.47,0.000772620077610253,0.00223377054926444
32.48,0.000774062549320886,0.00224015356928298
32.49,0.000775476376210671,0.00224654262629098
32.5,0.000776861834361098,0.00225293794157289
32.51,0.000778219203952157,0.00225933973955406
32.52,0.000779548769137661,0.00226574824773773
32.53,0.00078085081797552,0.00227216369669458
32.54,0.000782125642297404,0.00227858631999422
32.55,0.000783373537616705,0.00228501635417055
32.56,0.000784594803027172,0.00229145403868403
32.57,0.000785789741096332,0.0022978996158689
32.58,0.000786958657767123,0.00230435333090095
32.59,0.00078810186226197,0.00231081543175315
32.6,0.000789219666979424,0.00231728616915283
32.61,0.000790312387398129,0.00232376579654292
32.62,0.000791380341972681,0.00233025457003289
32.63,0.000792423852038149,0.00233675274836631
32.64,0.00079344324172248,0.00234326059288081
32.65,0.000794438837843803,0.00234977836746775
32.66,0.000795410969818833,0.00235630633853057
32.67,0.000796359969557292,0.00236284477494098
32.68,0.000797286171382638,0.0023693939480055
32.69,0.000798189911931591,0.0023759541314291
32.7,0.000799071530068529,0.00238252560127217
32.71,0.000799931366775142,0.00238910863590236
32.72,0.000800769765087139,0.00239570351597762
32.73,0.000801587069986454,0.00240231052439743
32.74,0.000802383628307313,0.00240892994625386
32.75,0.000803159788671848,0.00241556206882265
32.76,0.000803915901377517,0.00242220718150121
32.77,0.000804652318308507,0.00242886557576816
32.78,0.000805369392894661,0.00243553754519432
32.79,0.000806067479928951,0.00244222338531275
32.8,0.000806746935618108,0.00244892339371128
32.81,0.000807408117362907,0.0024556378698688
32.82,0.000808051383776265,0.00246236711521552
32.83,0.000808677094544463,0.00246911143305006
32.84,0.000809285610348875,0.00247587112849823
32.85,0.000809877292829442,0.00248264650853414
32.86,0.000810452504431347,0.00248943788186584
32.87,0.000811011608411794,0.00249624555899186
32.88,0.000811554968678019,0.00250306985208137
32.89,0.000812082949749771,0.00250991107498777
32.9,0.000812595916706793,0.0025167695432361
32.91,0.000813094235040834,0.00252364557392182
32.92,0.000813578270661086,0.00253053948575888
32.93,0.000814048389744637,0.00253745159897489
32.94,0.000814504958733253,0.00254438223534725
32.95,0.000814948344199817,0.00255133171812094
32.96,0.000815378912801479,0.00255830037199001
32.97,0.000815797031203047,0.00256528852308002
32.98,0.00081620306601804,0.00257229649891366
32.99,0.000816597383725082,0.00257932462837918
33,0.000816980350600405,0.00258637324169719
33.01,0.00081735233262914,0.0025934426703782
33.02,0.000817713695506206,0.0026005332472544
33.03,0.000818064804446461,0.00260764530633828
33.04,0.000818406024249541,0.0026147791829173
33.05,0.000818737719168183,0.0026219352134661
33.06,0.000819060252812753,0.00262911373558861
33.07,0.000819373988162564,0.00263631508806439
33.08,0.000819679287436759,0.00264353961075492
33.09,0.000819976512087095,0.00265078764464
33.1,0.000820266022660276,0.00265805953170806
33.11,0.000820548178836811,0.002665355615035
33.12,0.000820823339277466,0.00267267623866518
33.13,0.000821091861606282,0.0026800217476256
33.14,0.000821354102358507,0.00268739248791483
33.15,0.000821610416909535,0.00269478880646223
33.16,0.000821861159414183,0.00270221105109825
33.17,0.00082210668276006,0.0027096595705437
33.18,0.000822347338493068,0.0027171347143663
33.19,0.000822583476772665,0.00272463683297419
33.2,0.000822815446352321,0.00273216627761508
33.21,0.000823043594456285,0.0027397234002976
33.22,0.000823268266775923,0.00274730855381067
33.23,0.000823489807405098,0.00275492209169115
33.24,0.000823708558805314,0.00276256436822142
33.25,0.000823924861703018,0.00277023573835511
33.26,0.000824139055105255,0.00277793655775449
33.27,0.000824351476211516,0.00278566718274442
33.28,0.000824562460372102,0.00279342797028903
33.29,0.000824772341039948,0.00280121927797627
33.3,0.000824981449736972,0.00280904146400918
33.31,0.000825190115985475,0.00281689488716286
33.32,0.000825398667285704,0.00282477990679542
33.33,0.000825607429066677,0.00283269688281718
33.34,0.00082581672461679,0.00284064617565094
33.35,0.000826026875083485,0.0028486281462583
33.36,0.000826238199387985,0.00285664315607692
33.37,0.000826451014221186,0.00286469156703983
33.38,0.000826665633983481,0.00287277374154427
33.39,0.000826882370735249,0.00288089004242165
33.4,0.000827101534200847,0.00288904083296637
33.41,0.000827323431665028,0.00289722647685775
33.42,0.000827548367970832,0.00290544733817288
33.43,0.000827776645536349,0.00291370378143418
33.44,0.000828008564194516,0.00292199617146738
33.45,0.000828244421280599,0.00293032487350953
33.46,0.000828484511506189,0.00293869025310567
33.47,0.000828729126992056,0.002947092676159
33.48,0.0008289785571991,0.00295553250889191
33.49,0.000829233088912251,0.00296401011783232
33.5,0.000829493006176185,0.00297252586978625
33.51,0.000829758590324081,0.00298108013187692
33.52,0.000830030119880809,0.00298967327146571
33.53,0.000830307870592684,0.00299830565620651
33.54,0.000830592115364848,0.00300697765399438
33.55,0.000830883124231296,0.0030156896329574
33.56,0.000831181164348438,0.00302444196146434
33.57,0.000831486499958678,0.00303323500810815
33.58,0.000831799392362442,0.00304206914169425
33.59,0.000832120099876543,0.00305094473121093
33.6,0.000832448877869374,0.00305986214588694
33.61,0.000832785978660877,0.00306882175509859
33.62,0.000833131651560293,0.00307782392843237
33.63,0.000833486142802542,0.00308686903562516
33.64,0.000833849695552114,0.00309595744659286
33.65,0.000834222549871644,0.0031050895314072
33.66,0.000834604942730688,0.0031142656603167
33.67,0.00083499710792434,0.00312348620368175
33.68,0.000835399276120752,0.00313275153203751
33.69,0.000835811674799847,0.00314206201603806
33.7,0.000836234528264979,0.00315141802648733
33.71,0.000836668057604073,0.00316081993430706
33.72,0.000837112480684077,0.00317026811054921
33.73,0.000837568012148626,0.00317976292639377
33.74,0.000838034863374526,0.0031893047531304
33.75,0.000838513242499506,0.00319889396217321
33.76,0.000839003354365597,0.00320853092508167
33.77,0.000839505400542895,0.00321821601347094
33.78,0.000840019579285811,0.00322794959909933
33.79,0.000840546085549176,0.00323773205383071
33.8,0.00084108511097658,0.00324756374964918
33.81,0.00084163684387728,0.00325744505864345
33.82,0.000842201469232862,0.00326737635301522
33.83,0.000842779168664487,0.00327735800506346
33.84,0.000843370120460096,0.00328739038721781
33.85,0.000843974499528222,0.00329747387199697
33.86,0.000844592477441286,0.00330760883206072
33.87,0.000845224222399077,0.00331779564017809
33.88,0.000845869899210316,0.00332803466922182
33.89,0.000846529669316975,0.00333832629219522
33.9,0.000847203690794163,0.00334867088223811
33.91,0.000847892118323923,0.00335906881260539
33.92,0.000848595103212557,0.00336952045669403
33.93,0.000849312793368528,0.00338002618802502
33.94,0.00085004533331734,0.00339058638026102
33.95,0.000850792864231731,0.0034012014072422
33.96,0.000851555523843861,0.00341187164290813
33.97,0.000852333446564879,0.0034225974614136
33.98,0.000853126763378453,0.00343337923703524
33.99,0.000853935601915379,0.00344421734424138
34,0.000854760086420936,0.00345511215767014
34.01,0.000855600337785423,0.00346606405215821
34.02,0.000856456473514955,0.00347707340272074
34.03,0.00085732860776766,0.00348814058458413
34.04,0.000858216851333249,0.00349926597317241
34.05,0.000859121311684086,0.00351044994416194
34.06,0.000860042092906577,0.00352169287341186
34.07,0.000860979295800757,0.00353299513706973
34.08,0.000861933017798688,0.00354435711148504
34.09,0.000862903353048172,0.00355577917330607
34.1,0.000863890392367672,0.0035672616994229
34.11,0.000864894223289947,0.00357880506702557
34.12,0.000865914930067824,0.00359040965360291
34.13,0.000866952593665316,0.0036020758369355
34.14,0.000868007291779604,0.00361380399511935
34.15,0.000869079098878456,0.00362559450660838
34.16,0.000870168086162248,0.00363744775017172
34.17,0.000871274321619264,0.00364936410494843
34.18,0.000872397870048336,0.00366134395047668
34.19,0.000873538793007222,0.00367338766663616
34.2,0.000874697148908088,0.00368549563374765
34.21,0.000875872992966875,0.0036976682325186
34.22,0.000877066377288571,0.00370990584413033
34.23,0.000878277350813805,0.00372220885018604
34.24,0.000879505959359816,0.00373457763274432
34.25,0.000880752245684624,0.00374701257439125
34.26,0.000882016249431627,0.00375951405817709
