"Freq [GHz]","AbsorbanceTE []","AbsorbanceTM []"
30,0.00279532320330966,0.00677707992347487
30.01,0.00279199431717247,0.00676137268250543
30.02,0.0027886712235341,0.00674571668641299
30.03,0.00278535398854074,0.00673011195498707
30.04,0.00278204267705218,0.0067145585041799
30.05,0.00277873735267531,0.00669905634617907
30.06,0.00277543807777714,0.00668360548946967
30.07,0.00277214491347577,0.00666820593884998
30.08,0.0027688579196542,0.00665285769551205
30.09,0.00276557715500048,0.00663756075711119
30.1,0.00276230267700284,0.00662231511780942
30.11,0.00275903454193149,0.00660712076829195
30.12,0.00275577280492811,0.00659197769590103
30.13,0.00275251751991068,0.00657688588458394
30.14,0.00274926873966563,0.00656184531502579
30.15,0.00274602651586453,0.00654685596470006
30.16,0.00274279089899465,0.00653191780784923
30.17,0.00273956193846447,0.00651703081561905
30.18,0.00273633968254738,0.00650219495604354
30.19,0.00273312417842886,0.00648741019413512
30.2,0.00272991547220636,0.0064726764919214
30.21,0.00272671360889787,0.00645799380848711
30.22,0.00272351863246922,0.00644336210004604
30.23,0.00272033058580523,0.00642878131993452
30.24,0.00271714951077895,0.00641425141873486
30.25,0.00271397544820018,0.00639977234424705
30.26,0.0027108084378854,0.00638534404160074
30.27,0.00270764851863592,0.0063709664532684
30.28,0.00270449572822351,0.00635663951908039
30.29,0.0027013501034735,0.00634236317634718
30.3,0.00269821168020079,0.00632813735982829
30.31,0.00269508049326617,0.00631396200182355
30.32,0.00269195657657051,0.0062998370321955
30.33,0.00268883996306535,0.00628576237842171
30.34,0.0026857306847794,0.00627173796564351
30.35,0.00268262877278425,0.00625776371666875
30.36,0.00267953425726153,0.00624383955207741
30.37,0.00267644716748527,0.00622996539022225
30.38,0.00267336753181568,0.0062161411472631
30.39,0.00267029537774877,0.00620236673724195
30.4,0.00266723073188591,0.00618864207208625
30.41,0.00266417361997462,0.00617496706167719
30.42,0.00266112406690278,0.00616134161387838
30.43,0.00265808209671403,0.00614776563457164
30.44,0.00265504773261438,0.00613423902769838
30.45,0.00265202099698458,0.00612076169529918
30.46,0.00264900191137085,0.00610733353754167
30.47,0.00264599049655034,0.00609395445279048
30.48,0.00264298677245423,0.0060806243375825
30.49,0.00263999075827248,0.00606734308674539
30.5,0.00263700247238241,0.00605411059335659
30.51,0.00263402193240536,0.00604092674882595
30.52,0.0026310491552034,0.00602779144292076
30.53,0.00262808415687321,0.00601470456378217
30.54,0.00262512695278438,0.00600166599798357
30.55,0.00262217755757765,0.00598867563057148
30.56,0.00261923598515701,0.00597573334506207
30.57,0.00261630224871512,0.00596283902350936
30.58,0.00261337636073822,0.0059499925465154
30.59,0.0026104583330181,0.00593719379328128
30.6,0.00260754817666764,0.0059244426416416
30.61,0.00260464590209164,0.00591173896805475
30.62,0.00260175151907094,0.0058990826477171
30.63,0.00259886503667284,0.00588647355448713
30.64,0.00259598646333459,0.00587391156099804
30.65,0.00259311580687271,0.00586139653868645
30.66,0.00259025307442229,0.00584892835775264
30.67,0.00258739827251875,0.00583650688727089
30.68,0.00258455140707514,0.00582413199517295
30.69,0.00258171248338457,0.00581180354828748
30.7,0.00257888150613561,0.00579952141236395
30.71,0.0025760584794462,0.00578728545213547
30.72,0.00257324340681753,0.00577509553128364
30.73,0.00257043629119824,0.00576295151253192
30.74,0.00256763713492769,0.00575085325760039
30.75,0.00256484593982764,0.00573880062732401
30.76,0.00256206270714743,0.0057267934816071
30.77,0.00255928743757838,0.00571483167946685
30.78,0.00255652013129037,0.00570291507908227
30.79,0.00255376078790026,0.00569104353777772
30.8,0.00255100940652331,0.00567921691209738
30.81,0.00254826598575453,0.00566743505780209
30.82,0.00254553052366546,0.00565569782988828
30.83,0.00254280301784593,0.00564400508263496
30.84,0.00254008346538248,0.00563235666961093
30.85,0.00253737186288128,0.00562075244370563
30.86,0.00253466820644455,0.00560919225713197
30.87,0.00253197249175618,0.00559767596151473
30.88,0.00252928471398151,0.00558620340781424
30.89,0.00252660486785117,0.0055747744464294
30.9,0.00252393294765563,0.00556338892718877
30.91,0.00252126894723337,0.00555204669937959
30.92,0.00251861285998078,0.00554074761175827
30.93,0.0025159646788655,0.00552949151257764
30.94,0.00251332439644569,0.00551827824962103
30.95,0.00251069200486764,0.00550710767022189
30.96,0.00250806749584576,0.00549597962124149
30.97,0.00250545086070186,0.00548489394914342
30.98,0.00250284209038421,0.00547385050000082
30.99,0.00250024117542502,0.00546284911949901
31,0.00249764810598263,0.00545188965295396
31.01,0.00249506287185308,0.00544097194536075
31.02,0.00249248546245751,0.00543009584139553
31.03,0.00248991586682901,0.00541926118539593
31.04,0.00248735407369927,0.00540846782147764
31.05,0.00248480007138996,0.00539771559342861
31.06,0.00248225384791734,0.00538700434482109
31.07,0.00247971539096059,0.00537633391900771
31.08,0.00247718468784619,0.00536570415909987
31.09,0.00247466172560074,0.00535511490804375
31.1,0.00247214649089744,0.00534456600857081
31.11,0.0024696389701393,0.00533405730329062
31.12,0.00246713914939845,0.00532358863464844
31.13,0.00246464701444182,0.00531315984495129
31.14,0.00246216255074017,0.00530277077640029
31.15,0.00245968574350408,0.00529242127111818
31.16,0.00245721657762299,0.00528211117111732
31.17,0.0024547550377334,0.00527184031836148
31.18,0.00245230110819317,0.00526160855476154
31.19,0.00244985477307813,0.00525141572217713
31.2,0.00244741601622955,0.00524126166246619
31.21,0.00244498482121769,0.00523114621746767
31.22,0.00244256117135089,0.00522106922901211
31.23,0.00244014504972279,0.00521103053899108
31.24,0.00243773643916789,0.0052010299892935
31.25,0.0024353353222798,0.00519106742185971
31.26,0.00243294168142549,0.00518114267869418
31.27,0.00243055549878468,0.00517125560190146
31.28,0.00242817675625828,0.00516140603362392
31.29,0.00242580543557569,0.00515159381613739
31.3,0.00242344151824747,0.00514181879182163
31.31,0.00242108498558058,0.00513208080317584
31.32,0.00241873581867769,0.00512237969283835
31.33,0.00241639399844495,0.00511271530357948
31.34,0.00241405950561124,0.00510308747835142
31.35,0.00241173232072323,0.00509349606026788
31.36,0.00240941242413317,0.00508394089262076
31.37,0.00240709979602838,0.00507442181889439
31.38,0.00240479441642238,0.0050649386827738
31.39,0.0024024962651652,0.00505549132816685
31.4,0.00240020532193719,0.0050460795991879
31.41,0.00239792156628993,0.00503670334021677
31.42,0.00239564497759426,0.00502736239585289
31.43,0.00239337553507635,0.00501805661094556
31.44,0.00239111321783569,0.00500878583063369
31.45,0.00238885800481425,0.00499954990030027
31.46,0.00238660987483452,0.00499034866563342
31.47,0.00238436880658321,0.00498118197260744
31.48,0.00238213477861871,0.00497204966749532
31.49,0.00237990776938091,0.00496295159688176
31.5,0.00237768775718183,0.0049538876076618
31.51,0.00237547472024224,0.0049448575470753
31.52,0.00237326863664089,0.0049358612626712
31.53,0.00237106948437693,0.00492689860237072
31.54,0.00236887724135249,0.00491796941444578
31.55,0.0023666918853309,0.00490907354748238
31.56,0.00236451339403188,0.00490021085049452
31.57,0.00236234174505079,0.00489138117283683
31.58,0.00236017691590817,0.00488258436424871
31.59,0.00235801888403808,0.00487382027485983
31.6,0.00235586762680218,0.00486508875520686
31.61,0.00235372312149595,0.00485638965623247
31.62,0.00235158534529312,0.00484772282924861
31.63,0.00234945427537092,0.0048390881260455
31.64,0.00234732988878683,0.00483048539878794
31.65,0.00234521216255479,0.00482191450009162
31.66,0.00234310107363644,0.00481337528300319
31.67,0.00234099659893072,0.00480486760101351
31.68,0.00233889871529791,0.00479639130806675
31.69,0.00233680739953113,0.00478794625854884
31.7,0.00233472262837542,0.00477953230729156
31.71,0.00233264437857139,0.00477114930963773
31.72,0.00233057262677661,0.00476279712135197
31.73,0.00232850734963796,0.00475447559870057
31.74,0.00232644852375652,0.00474618459841514
31.75,0.00232439612573465,0.00473792397774131
31.76,0.00232235013209259,0.00472969359436459
31.77,0.00232031051939818,0.00472149330652916
31.78,0.00231827726412992,0.0047133229729156
31.79,0.00231625034279848,0.00470518245275886
31.8,0.00231422973187567,0.00469707160577038
31.81,0.00231221540782289,0.00468899029218417
31.82,0.00231020734709997,0.00468093837275341
31.83,0.0023082055261664,0.00467291570876294
31.84,0.00230620992146169,0.0046649221619981
31.85,0.00230422050942392,0.00465695759477835
31.86,0.00230223726651935,0.00464902186998239
31.87,0.00230026016917928,0.00464111485098317
31.88,0.00229828919387731,0.00463323640172464
31.89,0.00229632431708104,0.00462538638668608
31.9,0.00229436551526518,0.00461756467088081
31.91,0.00229241276492709,0.00460977111988181
31.92,0.00229046604258409,0.00460200559981927
31.93,0.00228852532477375,0.0045942679773755
31.94,0.00228659058801473,0.00458655811975572
31.95,0.00228466180891107,0.00457887589477979
31.96,0.00228273896405617,0.00457122117080178
31.97,0.00228082203008484,0.00456359381674587
31.98,0.00227891098366118,0.00455599370211135
31.99,0.00227700580146517,0.00454842069694783
32,0.00227510646022622,0.00454087467189146
32.01,0.00227321293673655,0.00453335549817468
32.02,0.00227132520776574,0.0045258630475532
32.03,0.0022694432501762,0.00451839719241365
32.04,0.00226756704084918,0.00451095780569211
32.05,0.00226569655673126,0.00450354476092962
32.06,0.00226383177478362,0.00449615793221969
32.07,0.00226197267204364,0.00448879719427375
32.08,0.00226011922559655,0.00448146242238068
32.09,0.00225827141257617,0.00447415349241309
32.1,0.00225642921014857,0.00446687028082371
32.11,0.00225459259557959,0.0044596126646812
32.12,0.00225276154615106,0.004452380521626
32.13,0.00225093603923776,0.0044451737299076
32.14,0.00224911605225719,0.00443799216836149
32.15,0.00224730156269382,0.00443083571641867
32.16,0.00224549254809359,0.00442370425410687
32.17,0.00224368898606297,0.00441659766204272
32.18,0.0022418908543077,0.00440951582147486
32.19,0.00224009813055692,0.00440245861420174
32.2,0.00223831079264358,0.00439542592265885
32.21,0.00223652881846148,0.00438841762986453
32.22,0.00223475218598257,0.00438143361944487
32.23,0.0022329808732412,0.00437447377561428
32.24,0.00223121485836686,0.00436753798320677
32.25,0.00222945411955333,0.00436062612764343
32.26,0.00222769863507166,0.00435373809494122
32.27,0.00222594838329671,0.00434687377175103
32.28,0.00222420334264439,0.00434003304527741
32.29,0.00222246349166311,0.00433321580337365
32.3,0.00222072880894075,0.00432642193446076
32.31,0.00221899927316471,0.00431965132755929
32.32,0.00221727486313361,0.00431290387233407
32.33,0.00221555555770581,0.00430617945900569
32.34,0.00221384133582259,0.00429947797839914
32.35,0.00221213217655014,0.00429279932197291
32.36,0.0022104280590165,0.00428614338175437
32.37,0.00220872896244817,0.00427951005037963
32.38,0.00220703486616092,0.00427289922107343
32.39,0.00220534574957976,0.00426631078767914
32.4,0.00220366159221208,0.00425974464462642
32.41,0.00220198237366631,0.00425320068694124
32.42,0.00220030807364002,0.00424667881024354
32.43,0.00219863867194803,0.00424017891076067
32.44,0.00219697414846853,0.0042337008852863
32.45,0.00219531448321475,0.00422724463124113
32.46,0.00219365965629215,0.00422081004662711
32.47,0.00219200964788235,0.0042143970300168
32.48,0.00219036443830667,0.00420800548060662
32.49,0.00218872400796644,0.00420163529816775
32.5,0.00218708833735437,0.00419528638303834
32.51,0.00218545740710341,0.00418895863618551
32.52,0.00218383119792087,0.00418265195912748
32.53,0.00218220969063265,0.00417636625398465
32.54,0.00218059286616468,0.00417010142345375
32.55,0.00217898070556222,0.0041638573708237
32.56,0.0021773731899597,0.00415763399994851
32.57,0.00217577030060534,0.00415143121526573
32.58,0.0021741720188635,0.00414524892179913
32.59,0.00217257832620499,0.00413908702514632
32.6,0.00217098920420677,0.00413294543147291
32.61,0.00216940463454651,0.00412682404751397
32.62,0.00216782459903475,0.00412072278059572
32.63,0.00216624907957996,0.00411464153859731
32.64,0.00216467805819776,0.0041085802299714
32.65,0.00216311151702564,0.00410253876373623
32.66,0.00216154943830504,0.004096517049475
32.67,0.00215999180438309,0.00409051499732405
32.68,0.00215843859774445,0.00408453251800234
32.69,0.00215688980096551,0.0040785695227723
32.7,0.00215534539674633,0.00407262592345814
32.71,0.00215380536789656,0.00406670163244061
32.72,0.00215226969734339,0.00406079656265212
32.73,0.00215073836812119,0.00405491062757801
32.74,0.00214921136338542,0.00404904374124837
32.75,0.00214768866640391,0.00404319581824508
32.76,0.0021461702605694,0.00403736677370381
32.77,0.00214465612937187,0.0040315565232879
32.78,0.00214314625642764,0.00402576498321194
32.79,0.00214164062546518,0.0040199920702233
32.8,0.00214013922035272,0.00401423770163167
32.81,0.00213864202501779,0.00400850179522905
32.82,0.00213714902356521,0.00400278426939871
32.83,0.00213566020018352,0.00399708504301921
32.84,0.00213417553918382,0.00399140403550902
32.85,0.00213269502499691,0.00398574116681361
32.86,0.00213121864215993,0.00398009635739272
32.87,0.00212974637534968,0.00397446952824632
32.88,0.00212827820932482,0.00396886060086887
32.89,0.00212681412899052,0.00396326949729786
32.9,0.00212535411935755,0.00395769614006769
32.91,0.00212389816555336,0.00395214045223213
32.92,0.0021224462528191,0.00394660235735222
32.93,0.00212099836651669,0.00394108177949892
32.94,0.00211955449213097,0.00393557864325567
32.95,0.00211811461524558,0.00393009287369039
32.96,0.00211667872158194,0.00392462439639307
32.97,0.00211524679695996,0.0039191731374334
32.98,0.00211381882731831,0.0039137390233851
32.99,0.00211239479872971,0.00390832198132318
33,0.00211097469736188,0.0039029219387976
33.01,0.00210955850950467,0.00389753882385369
33.02,0.00210814622157174,0.00389217256502583
33.03,0.00210673782008497,0.00388682309133137
33.04,0.00210533329167006,0.00388149033225071
33.05,0.00210393262309871,0.00387617421777464
33.06,0.00210253580123088,0.00387087467834601
33.07,0.00210114281305551,0.00386559164488975
33.08,0.0020997536456665,0.00386032504879386
33.09,0.00209836828628251,0.00385507482192804
33.1,0.00209698672222369,0.00384984089660723
33.11,0.0020956089409383,0.00384462320562551
33.12,0.00209423492998551,0.0038394216822446
33.13,0.00209286467702985,0.00383423626015988
33.14,0.00209149816984788,0.00382906687353157
33.15,0.00209013539635394,0.00382391345699062
33.16,0.00208877634454385,0.00381877594559266
33.17,0.00208742100253778,0.00381365427484714
33.18,0.00208606935858258,0.00380854838072509
33.19,0.00208472140101257,0.00380345819961558
33.2,0.00208337711829643,0.0037983836683726
33.21,0.00208203649899363,0.00379332472425742
33.22,0.00208069953179069,0.00378828130499387
33.23,0.00207936620548388,0.00378325334872598
33.24,0.00207803650897442,0.00377824079402933
33.25,0.00207671043126667,0.0037732435798925
33.26,0.00207538796148476,0.00376826164574551
33.27,0.00207406908887542,0.00376329493144478
33.28,0.00207275380277294,0.00375834337725178
33.29,0.00207144209262089,0.00375340692383752
33.3,0.00207013394798461,0.00374848551230778
33.31,0.00206882935853392,0.00374357908416978
33.32,0.00206752831404766,0.00373868758133877
33.33,0.00206623080440271,0.00373381094613967
33.34,0.00206493681958464,0.00372894912128674
33.35,0.00206364634971123,0.00372410204992668
33.36,0.0020623593849638,0.00371926967556757
33.37,0.00206107591566285,0.00371445194213504
33.38,0.00205979593222505,0.00370964879394875
33.39,0.00205851942517199,0.00370486017571492
33.4,0.00205724638512306,0.00370008603252037
33.41,0.00205597680281955,0.00369532630985692
33.42,0.00205471066908991,0.0036905809535791
33.43,0.00205344797488072,0.00368584990994147
33.44,0.00205218871123958,0.00368113312557083
33.45,0.00205093286928903,0.00367643054744538
33.46,0.00204968044029874,0.00367174212295607
33.47,0.00204843141561672,0.00366706779984605
33.48,0.00204718578669039,0.00366240752622249
33.49,0.00204594354508292,0.00365776125056805
33.5,0.00204470468244555,0.00365312892172731
33.51,0.00204346919054421,0.0036485104889119
33.52,0.00204223706123041,0.00364390590167696
33.53,0.00204100828645815,0.00363931510993931
33.54,0.00203978285829842,0.00363473806398551
33.55,0.00203856076890152,0.00363017471443983
33.56,0.00203734201052408,0.00362562501227748
33.57,0.00203612657553454,0.00362108890883395
33.58,0.00203491445636839,0.00361656635576024
33.59,0.00203370564559702,0.0036120573050924
33.6,0.00203250013586032,0.00360756170916865
33.61,0.00203129791991163,0.0036030795206895
33.62,0.00203009899059736,0.00359861069268308
33.63,0.00202890334085759,0.00359415517851269
33.64,0.00202771096372867,0.00358971293186983
33.65,0.00202652185235197,0.00358528390678525
33.66,0.0020253359999568,0.00358086805761182
33.67,0.00202415339987705,0.00357646533903277
33.68,0.00202297404552909,0.00357207570604867
33.69,0.00202179793043022,0.00356769911397947
33.7,0.00202062504819389,0.00356333551846888
33.71,0.00201945539252724,0.00355898487548345
33.72,0.00201828895723077,0.00355464714129439
33.73,0.00201712573620871,0.00355032227250363
33.74,0.00201596572343521,0.00354601022599521
33.75,0.00201480891301087,0.00354171095900324
33.76,0.00201365529911135,0.00353742442903904
33.77,0.00201250487599014,0.0035331505939199
33.78,0.0020113576380375,0.0035288894117993
33.79,0.00201021357968723,0.00352464084109172
33.8,0.00200907269549788,0.00352040484053906
33.81,0.00200793498011032,0.00351618136917298
33.82,0.00200680042826429,0.00351197038632778
33.83,0.00200566903477406,0.00350777185162254
33.84,0.00200454079457635,0.00350358572499188
33.85,0.00200341570266871,0.00349941196663772
33.86,0.00200229375416405,0.00349525053707378
33.87,0.00200117494426133,0.00349110139709707
33.88,0.00200005926823632,0.0034869645077783
33.89,0.00199894672149081,0.00348283983050757
33.9,0.00199783729947201,0.00347872732691534
33.91,0.00199673099775932,0.0034746269589534
33.92,0.00199562781201446,0.00347053868884772
33.93,0.00199452773797293,0.00346646247909255
33.94,0.00199343077148628,0.00346239829247519
33.95,0.0019923369084961,0.00345834609206586
33.96,0.00199124614501522,0.00345430584119322
33.97,0.00199015847716699,0.00345027750347537
33.98,0.00198907390117553,0.00344626104281998
33.99,0.00198799241333281,0.00344225642337592
34,0.00198691401004714,0.00343826360959509
34.01,0.00198583868781699,0.0034342825661956
34.02,0.00198476644323042,0.0034303132581639
34.03,0.00198369727295378,0.00342635565074656
34.04,0.00198263117377284,0.00342240970947849
34.05,0.00198156814256334,0.00341847540016282
34.06,0.00198050817629014,0.00341455268886037
34.07,0.00197945127203247,0.00341064154192872
34.08,0.00197839742691719,0.00340674192593871
34.09,0.00197734663823079,0.00340285380779071
34.1,0.00197629890332285,0.00339897715462079
34.11,0.00197525421963884,0.00339511193382735
34.12,0.00197421258473429,0.00339125811308838
34.13,0.0019731739962684,0.00338741566035405
34.14,0.00197213845198085,0.00338358454382026
34.15,0.00197110594973082,0.00337976473196433
34.16,0.00197007648747194,0.00337595619352959
34.17,0.0019690500632622,0.00337215889752285
34.18,0.00196802667526996,0.00336837281322655
34.19,0.00196700632175695,0.00336459791017851
34.2,0.00196598900109035,0.00336083415818234
34.21,0.00196497471174439,0.00335708152731518
34.22,0.00196396345230887,0.00335333998792553
34.23,0.00196295522149104,0.00334960951064267
34.24,0.00196195001807664,0.00334589006633312
34.25,0.00196094784099432,0.0033421816261614
34.26,0.00195994868927052,0.00333848416155769
34.27,0.00195895256203438,0.00333479764420541
34.28,0.00195795945856081,0.00333112204609665
34.29,0.00195696937821921,0.00332745733947437
34.3,0.0019559823205122,0.00332380349686523
34.31,0.00195499828503787,0.00332016049106187
34.32,0.0019540172715441,0.00331652829515272
34.33,0.00195303927989432,0.00331290688250463
34.34,0.00195206431006323,0.00330929622674936
34.35,0.0019510923621775,0.00330569630182886
