"Freq [GHz]","AbsorbanceTM []","AbsorbanceTE []"
75,0.00225967996707233,0.00225744178882081
75.03,0.00226836082345594,0.002266089574536
75.06,0.00227767519446009,0.00227536873600309
75.09,0.00228739658026023,0.00228505316010308
75.12,0.00229738104676647,0.00229499927234034
75.15,0.00230754359369989,0.00230512235916625
75.18,0.00231784058884954,0.00231537898538259
75.21,0.00232825679927195,0.00232575402540092
75.24,0.00233879590157771,0.00233625118269354
75.27,0.00234947362055704,0.00234688614180234
75.3,0.00236031284864291,0.00235768170234241
75.33,0.00237134025330932,0.00236866440034178
75.36,0.00238258399672575,0.00237986224025222
75.39,0.002394072282358,0.00239130325186854
75.42,0.00240583251089688,0.00240301465441306
75.45,0.00241789088104316,0.00241502246334102
75.48,0.00243027230984671,0.0024273514147638
75.51,0.00244300057871871,0.00244002511379704
75.54,0.00245609863443685,0.00245306633640296
75.57,0.0024695889926204,0.00246649743242611
75.6,0.00248349420514293,0.00248034079151083
75.63,0.00249783736362574,0.00249461934424222
75.66,0.00251264261964845,0.00250935707930022
75.69,0.00252793570862664,0.00252457956374397
75.72,0.00254374446938888,0.00254031445856795
75.75,0.00256009935551393,0.00255659202566616
75.78,0.00257703393774511,0.00257344562563455
75.81,0.00259458539908464,0.0025909122080221
75.84,0.00261279502684209,0.00260903279836289
75.87,0.00263170870734175,0.00262785298768931
75.9,0.00265137743089772,0.00264742343213187
75.93,0.00267185781640544,0.00266780037191561
75.96,0.00269321266637079,0.00268904618053456
75.99,0.00271551156512051,0.00271122995676731
76.02,0.00273883153467525,0.002734428173921
76.05,0.00276325776541608,0.00275872540331168
76.08,0.00278888444054937,0.00278421513082694
76.11,0.00281581567732547,0.00281100068934637
76.14,0.00284416661090414,0.00283919633265828
76.17,0.0028740646517772,0.00286892848151965
76.2,0.00290565095285999,0.00290033717760252
76.23,0.00293908212916039,0.00293357778781811
76.26,0.00297453228167255,0.00296882301012891
76.29,0.0030121953865142,0.00300626524123215
76.32,0.00305228812464631,0.00304611938064592
76.35,0.00309505324230941,0.00308862616032979
76.38,0.00314076355359993,0.0031340561100448
76.41,0.00318972672205386,0.00318271429372352
76.44,0.0032422909912041,0.00323494598489427
76.47,0.00329885207526437,0.00329114348975001
76.5,0.00335986147679634,0.00335175438157309
76.53,0.00342583656680662,0.00341729147778569
76.56,0.00349737285520635,0.00348834498224038
76.59,0.00357515900009731,0.00356559733417727
76.62,0.00365999526365668,0.00364984146242042
76.65,0.00375281633566993,0.00374200335357155
76.68,0.00385471973322526,0.003843170126275
76.71,0.0039670013756169,0.00395462518831446
76.74,0.004091200470283,0.00407789258191749
76.77,0.00422915658913714,0.00421479335451047
76.8,0.0043830828599023,0.004367517820689
76.83,0.00455566067877278,0.00453871903838843
76.86,0.00475016348403468,0.00473163491947171
76.89,0.00497062023849759,0.00495024944880729
76.92,0.00522203387025411,0.00519950800481672
76.95,0.00551067684091355,0.00548560856547942
76.98,0.00584449659968622,0.00581640096939029
77.01,0.00623368020056081,0.00620194259140283
77.04,0.0066914536649112,0.00665528455355657
77.07,0.00723523453876129,0.00719360453700235
77.1,0.00788832772536097,0.00783987228574767
77.13,0.00868247778201259,0.00862535411558896
77.16,0.0096618091559606,0.009593475663353
77.19,0.0108890867106006,0.0108059526274114
77.22,0.0124559948886223,0.0123528443498133
77.25,0.0145006652545556,0.0143696722104919
77.28,0.0172389072117369,0.0170678705753459
77.31,0.0210228114276079,0.0207918150462334
77.34,0.026457721616442,0.0261323841465595
77.37,0.0346538328442608,0.0341705326122256
77.4,0.0478194670391225,0.0470496602857703
77.43,0.0708296122212674,0.0694824913150193
77.46,0.116002689901675,0.113317624726717
77.49,0.220082477010934,0.213715746901557
77.52,0.502884030982639,0.486079067972018
77.55,0.975611363050076,0.969756688776177
77.58,0.591866432203874,0.610148149581955
77.61,0.251057293817617,0.257534020107374
77.64,0.127043118065658,0.129364107404931
77.67,0.0752646817572091,0.0762571419651774
77.7,0.0496744920574218,0.0501599517894574
77.73,0.0353572338476429,0.035617942427704
77.76,0.026596183070971,0.0267455645536055
77.79,0.020866191695756,0.0209557329430438
77.82,0.0169227577362868,0.0169781328665094
77.85,0.0140981207902939,0.0141331126876434
77.88,0.0120090593081452,0.0120315190484576
77.91,0.0104233873626848,0.0104380105184315
77.94,0.00919402830202265,0.00920374085546694
77.97,0.00822430742560443,0.0082309983672525
78,0.00744867613503575,0.00745360377833981
