"Freq [GHz]","AbsorbanceTM []","AbsorbanceTE []"
75,0.00224229396890674,0.00223766145672699
75.03,0.00237527455247621,0.0023724637818866
75.06,0.00252615644955123,0.00252530133153483
75.09,0.00269568948638721,0.00269691474388567
75.12,0.00288497866585513,0.00288838102834799
75.15,0.00309550162282135,0.00310112346952818
75.18,0.0033291392593966,0.00333693150813996
75.21,0.00358822194868247,0.00359799159309504
75.24,0.0038755949757695,0.00388693060261303
75.27,0.00419470871833394,0.00420687422177679
75.3,0.00454974178977818,0.00456152374697494
75.33,0.00494576954543402,0.00495525634919558
75.36,0.00538899696933959,0.0053932561809763
75.39,0.0058870857697807,0.00588168741370509
75.42,0.00644962374804314,0.00642792637427869
75.45,0.00708881634712177,0.00704088041448747
75.48,0.00782053798505089,0.0077314400132249
75.51,0.0086659897225666,0.00851314639099254
75.54,0.00965442517295101,0.00940322849464459
75.57,0.0108278549746099,0.0104243149811992
75.6,0.0122496311547086,0.0116074699474659
75.63,0.0140211607045447,0.0129980353455482
75.66,0.0163170410181847,0.0146679702958606
75.69,0.0194661152358028,0.016744844104624
75.72,0.02416153122284,0.0194891485675603
75.75,0.0320945340585109,0.0235359527852119
75.78,0.0483145168997693,0.0308312351999958
75.81,0.0932361475593871,0.0496112806427251
75.84,0.299443605103859,0.136943877897534
75.87,0.920249520964814,0.437577008636543
75.9,0.290699470551623,0.172066735040368
75.93,0.145671737689949,0.107575668701984
75.96,0.110747356299219,0.0952390396148221
75.99,0.103164191819947,0.0974073139356074
76.02,0.106872736662847,0.106667940820452
76.05,0.117564276273757,0.121168954408726
76.08,0.134019200916807,0.14054157999908
76.11,0.155993477759623,0.164815854273452
76.14,0.183413450603918,0.193916324106202
76.17,0.215868032310076,0.227273029515634
76.2,0.252201378675388,0.263501091145862
76.23,0.290275906017167,0.30026682033262
76.26,0.327065855913313,0.334494952774506
76.29,0.359151156782737,0.362941758592786
76.32,0.383456008611059,0.382929431049012
76.35,0.397918349354262,0.392920846877696
76.38,0.401842423121208,0.392732578539807
76.41,0.395886604802717,0.383401281813845
76.44,0.381781115041838,0.366838016233809
76.47,0.361906310613984,0.345405686772294
76.5,0.338857967379686,0.321524789837505
76.53,0.315115975063033,0.297391354052834
76.56,0.292908179284997,0.274864593080267
76.59,0.274340785733785,0.255556165805812
76.62,0.261935382480355,0.241179038240955
76.65,0.260113000593134,0.234416528564095
76.68,0.280004068855494,0.241450308479903
76.71,0.360361688773126,0.281632447276699
76.74,0.676780839087172,0.423272047489578
76.77,0.782730514900067,0.336647442117264
76.8,0.230082378986368,0.0893396438139397
76.83,0.119114913752983,0.059197638363883
76.86,0.0874560270237226,0.053331333254471
76.89,0.0732417460818334,0.0504392569819887
76.92,0.064649069440623,0.0479118783572945
76.95,0.0584583732925019,0.045420082093399
76.98,0.0535455644994163,0.042973565256386
77.01,0.0494363962184042,0.040617559457471
77.04,0.045896486672021,0.0383843739623195
77.07,0.0427930471878795,0.036290573506187
77.1,0.0400417184281763,0.0343413831605897
77.13,0.03758384405093,0.0325349438505117
77.16,0.0353758248187009,0.0308653416192697
77.19,0.0333836989326283,0.0293245775643024
77.22,0.0315801605351886,0.0279037983060232
77.25,0.0299427986290041,0.0265940454961753
77.28,0.0284529915497606,0.025386703193601
77.31,0.0270951818557088,0.0242737613155577
77.34,0.0258563937083645,0.0232479732814826
77.37,0.0247259255621547,0.0223029617074861
77.4,0.0236951934691199,0.0214333136468007
77.43,0.0227577344734465,0.0206347048091698
77.46,0.0219094205669478,0.0199041020855363
77.49,0.0211490018296445,0.019240122790352
77.52,0.0204792337962151,0.0186436967382418
77.55,0.0199091494762641,0.0181193341228413
77.58,0.019458787952895,0.0176776877145859
77.61,0.0191697423208667,0.0173411373077198
77.64,0.0191312442959618,0.0171572932584275
77.67,0.0195547466033057,0.0172366946547735
77.7,0.0210370665165125,0.0178823179981775
77.73,0.0258545198593103,0.0202068406672307
77.76,0.0499014507840774,0.0315915758421977
77.79,0.419228279589046,0.188859709567783
77.82,0.0444902510424726,0.0236042454813182
77.85,0.0204200242126733,0.014206765744379
77.88,0.0157755604631225,0.0124983923669091
77.91,0.0140346395026931,0.0118311750065192
77.94,0.013114289284524,0.0114336387933598
77.97,0.0125133292167923,0.0111348359517772
78,0.0120652549072974,0.0108827502291097
