"Freq [GHz]","AbsorbanceTM []","AbsorbanceTE []"
70,0.0087894986799183,0.00852253030282835
70.05,0.00915161605502135,0.00887367452743781
70.1,0.00954183260149843,0.00925071403801003
70.15,0.00996260949839811,0.00965605027431593
70.2,0.0104166866138427,0.0100923526478234
70.25,0.0109071107242733,0.0105625872100774
70.3,0.0114372649309812,0.0110700471623696
70.35,0.0120108983893298,0.0116183846175828
70.4,0.0126321549246232,0.0122116425969856
70.45,0.0133055983320293,0.0128542856208426
70.5,0.0140362310555087,0.0135512263515564
70.55,0.0148295013986884,0.0143078444704621
70.6,0.0156912922876553,0.0151299921739463
70.65,0.0166278817040969,0.016023978189934
70.7,0.0176458610303046,0.0169965188283283
70.75,0.0187519924990979,0.0180546400575822
70.8,0.0199529805854417,0.0192055087189298
70.85,0.0212551245787334,0.0204561636313199
70.9,0.0226638112117455,0.0218131086356469
70.95,0.0241827983832565,0.0232817202776445
71,0.0258132363589207,0.0248654145718107
71.05,0.027552376205341,0.0265645136469328
71.1,0.0293919344463384,0.0283747602979535
71.15,0.0313161293111689,0.0302854564764219
71.2,0.0332994911507866,0.0322772643355426
71.25,0.0353046893496868,0.0343198212682104
71.3,0.0372808101175395,0.0363694943182065
71.35,0.0391627350055446,0.0383678265777975
71.4,0.0408724320238444,0.0402414608961952
71.45,0.0423229481498584,0.0419044562252203
71.5,0.0434255292582838,0.043263773683753
71.55,0.0440995072990978,0.0442281398558377
71.6,0.0442835072250326,0.0447194656248351
71.65,0.0439455444358018,0.0446847670770477
71.7,0.0430892794421444,0.044105665444822
71.75,0.0417544590616595,0.0430026588550375
71.8,0.0400112465830359,0.0414326866585613
71.85,0.0379500012073583,0.0394805736311398
71.9,0.035669244298659,0.0372467757730147
71.95,0.0332646008310619,0.0348346140182068
72,0.0308206229625517,0.0323397001736746
72.05,0.0284061757573391,0.029843012140311
72.1,0.0260730467088379,0.0274077654672804
72.15,0.0238568924714534,0.0250793413918211
72.2,0.0217795311357522,0.0228871886361924
72.25,0.019851756547242,0.0208476824106253
72.3,0.0180761175749383,0.0189671888962035
72.35,0.0164493556139541,0.0172448805298074
72.4,0.0149643791196902,0.0156750889186918
72.45,0.0136117692362746,0.0142491433086883
72.5,0.0123808701508142,0.0129567324183745
72.55,0.0112605407558827,0.0117868668106841
72.6,0.0102396470726049,0.0107285277683993
72.65,0.00930737001599535,0.00977108171167806
72.7,0.00845339965797332,0.00890452595389402
72.75,0.00766809321628958,0.00811961727430111
72.8,0.00694269787410262,0.0074079218776899
72.85,0.00626978674460177,0.00676181471677717
72.9,0.00564411037657642,0.00617444795171729
72.95,0.00506402869986988,0.00563970223556465
73,0.00453327597298958,0.00515213016228966
73.05,0.00406163960735106,0.00470689822885284
73.1,0.00366173356032184,0.00429973175364606
73.15,0.0033405456663631,0.00392686617152593
73.2,0.00309118419637611,0.00358500791384575
73.25,0.00289390103694198,0.00327130875649384
73.3,0.00272607719551943,0.00298335934644522
73.35,0.00257111793431586,0.00271921112950224
73.4,0.00242054093995414,0.00247744192302779
73.45,0.0022716625976037,0.00225728972364769
73.5,0.00212469790662373,0.00205889110785851
73.55,0.00198085123551495,0.00188366536860018
73.6,0.00184139423557461,0.00173484316470141
73.65,0.00170733163909964,0.00161791972802372
73.7,0.00157934043079067,0.0015401202183416
73.75,0.0014578114215924,0.00150660557460514
73.8,0.00134291634519224,0.00151106136691981
73.85,0.00123467116912213,0.00152630321692271
73.9,0.00113298715754506,0.00151370525739281
73.95,0.00103770926987845,0.00145224497418772
74,0.000948644026171896,0.00135013558576536
74.05,0.000865579376582382,0.00122819575594935
74.1,0.000788298809281107,0.00110338738158355
74.15,0.000716591478079232,0.000984935096948303
74.2,0.000650259730594405,0.000876560352395028
74.25,0.000589125125580625,0.000779130853586829
74.3,0.000533033858265197,0.000692294274234007
74.35,0.000481862469253302,0.00061528920408227
74.4,0.000435524816053467,0.000547304630426404
74.45,0.000393981592630488,0.000487626712939004
74.5,0.000357254302684518,0.000435695636062161
74.55,0.00032544676617674,0.000391131668438738
74.6,0.000298779438930419,0.000353760460822361
74.65,0.000277646053361003,0.00032365767589293
74.7,0.000262710514724374,0.000301235409738809
74.75,0.000255079616045983,0.000287408298335068
74.8,0.000256626195630827,0.00028391628849278
74.85,0.000270630138899941,0.000293976170231858
74.9,0.000303144310832337,0.000323680892487688
74.95,0.000366179710394765,0.000385274970701621
75,0.000486054692835913,0.000505761660193116
75.05,0.000729052616657677,0.00075342229559372
75.1,0.00130079651089932,0.00134092229911231
75.15,0.00310809121613786,0.00321235050327862
75.2,0.014813237362331,0.0155527580817078
75.25,0.346982435992304,0.314151241742102
75.3,0.0111636892732467,0.0109978244876979
75.35,0.00373290468356591,0.00371198772427073
75.4,0.00210203038144574,0.0020925653036814
75.45,0.00150350551740375,0.00149491843020799
75.5,0.00123556820532844,0.00122611688920693
75.55,0.00111012610011074,0.00109939392636227
75.6,0.00105930410550548,0.00104713491243169
75.65,0.00105382739030069,0.00104010881560535
75.7,0.00107955907962654,0.00106416887033478
75.75,0.00112920495405178,0.00111199616211477
75.8,0.00119892527360854,0.00117972189812765
75.85,0.0012867966985135,0.00126539218285759
75.9,0.00139205731227832,0.00136821366739526
75.95,0.001514715087236,0.00148816196125945
76,0.00165533855736077,0.00162577205758452
76.05,0.00181494535767979,0.00178202659560245
76.1,0.00199494696042724,0.00195830035497824
76.15,0.00219712803566485,0.00215633944631421
76.2,0.00242364888927649,0.00237826368573935
76.25,0.0026770646803721,0.00262658590099563
76.3,0.00296035798123473,0.00290424479582374
76.35,0.00327698283245803,0.00321464961508655
76.4,0.00363091930961301,0.00356173575240482
76.45,0.00402673800797948,0.00395003088022483
76.5,0.00446967387258079,0.0043847312667028
76.55,0.00496570845558553,0.00487178768250862
76.6,0.0055216589024687,0.00541799962831901
76.65,0.00614527061626191,0.00603111539816237
76.7,0.00684530840909781,0.00671993351862321
76.75,0.00763163772600051,0.00749439806651142
76.8,0.00851528283299374,0.00836567586119008
76.85,0.00950844225270431,0.00934619705316198
76.9,0.0106244327708821,0.0104496316457651
76.95,0.0118775218139823,0.0116907625753391
77,0.013282594396391,0.0130852012505619
77.05,0.0148545873585297,0.0146488754715286
77.1,0.0166076163477785,0.0163972074749513
77.15,0.0185537340209536,0.0183439046280149
77.2,0.0207013154586989,0.0204993372950856
77.25,0.0230531044393597,0.0228686128813386
77.3,0.0256015679245488,0.0254489433084835
77.35,0.0282301981583251,0.0281947116140844
77.4,0.030173832874438,0.0302674231619705
77.45,0.0334687019841485,0.0335520194746488
77.5,0.0364241608431225,0.0366295346948687
77.55,0.0391684193629986,0.0395057448586521
77.6,0.041643705726409,0.0421250274624363
77.65,0.0437515903960743,0.044381165097046
77.7,0.0453979699583884,0.0461695004119776
77.75,0.0465129644925776,0.0474092349402698
77.8,0.0470625864822387,0.0480571612102326
77.85,0.047052933097923,0.0481134828821155
77.9,0.0465269809257377,0.0476193692652725
77.95,0.0455556590510863,0.0466477844373451
78,0.0442261041857404,0.0452907341047345
78.05,0.0426300951239915,0.0436463720659038
78.1,0.0408547986524225,0.0418085164345851
78.15,0.0389767406270862,0.0398597362625819
78.2,0.0370588917915976,0.0378679566110859
78.25,0.0351501758424092,0.0358858223465397
78.3,0.0332865422719832,0.0339518479155301
78.35,0.0314928457751172,0.0320924858450319
78.4,0.0297849810912783,0.0303244838554373
78.45,0.0281719330838528,0.0286571439302082
78.5,0.0266575685582968,0.0270942885981389
78.55,0.025242108430956,0.0256358677548918
78.6,0.0239232843857865,0.0242792132733147
78.65,0.0226972165077788,0.0230199843936801
78.7,0.0215590599679988,0.0218528590391511
78.75,0.0205034689061417,0.0207720255080032
78.8,0.01952492025316,0.0197715223669568
78.85,0.0186179329248801,0.0188454658212669
78.9,0.0177772104843679,0.01798819544129
78.95,0.0169977288743529,0.0171943617916941
79,0.01627478545017,0.0164589735139051
79.05,0.015604021289146,0.015777416709024
79.1,0.0149814254823872,0.0151454558850755
79.15,0.0144033276516659,0.0145592230559319
79.2,0.0138663831119145,0.0140151996144904
79.25,0.0133675537633262,0.0135101941734742
79.3,0.0129040868347058,0.0130413185458613
79.35,0.0124734929059399,0.0126059633066297
79.4,0.0120735241468578,0.0122017738655762
79.45,0.0117021533645465,0.0118266276239625
79.5,0.0113575542108677,0.0114786125416614
79.55,0.0110380827370598,0.0111560072748249
79.6,0.0107422603704952,0.0108572629325826
79.65,0.0104687583166098,0.0105809864308047
79.7,0.010216383340826,0.010325925375016
79.75,0.00998406485795211,0.0100909543795499
79.8,0.00977084324079935,0.00987506271690985
79.85,0.00957585925227877,0.00967734318584368
79.9,0.0093983445049759,0.00949698208877781
79.95,0.00923761285301228,0.00933325021174136
80,0.00909305262736781,0.0091854947080221
