"Freq [GHz]","AbsorbanceTM []","AbsorbanceTE []"
70,0.0146153631463934,0.0152451163475956
70.05,0.0149461070402821,0.0156511464600643
70.1,0.0154159882133308,0.0161828271561729
70.15,0.0160284839203994,0.0168499763364179
70.2,0.0167960456964049,0.0176724190487175
70.25,0.0177439230868345,0.0186844592770683
70.3,0.0189167971184546,0.0199427121955923
70.35,0.0203909098350594,0.021540534482114
70.4,0.0222977158958669,0.0236363510331672
70.45,0.0248738743159356,0.0265139163434167
70.5,0.0285785018270441,0.0307245897995539
70.55,0.0344092797287888,0.0374735579215844
70.6,0.0449396883496134,0.049896345661316
70.65,0.0689159819025991,0.0787580079010388
70.7,0.155529306185787,0.18523811376669
70.75,0.85144526728479,0.947988369194596
70.8,0.098655092171979,0.119601165054126
70.85,0.0187014028312397,0.0241095777527121
70.9,0.0115971960260025,0.0124975234653402
70.95,0.0496170369545019,0.0310926826254674
71,0.017216321717165,0.0146803141876226
71.05,0.0197771286899084,0.0168914206780673
71.1,0.0291264815858022,0.0240276378543608
71.15,0.0533135004165266,0.0422459742626669
71.2,0.152166171579878,0.117043521372487
71.25,0.795795254471695,0.833396688973469
71.3,0.171004320999097,0.151342893855596
71.35,0.0515624746252239,0.0430761461227414
71.4,0.0274656269235634,0.023545048898072
71.45,0.0194754774682535,0.0173956071445359
71.5,0.0161607765324302,0.0149737426397929
71.55,0.0146567548371503,0.0139586396054888
71.6,0.0139883495887162,0.0135775395263631
71.65,0.0137526331719512,0.0135156683589901
71.7,0.0137585991617837,0.0136255001252773
71.75,0.0139055229754014,0.0138301446769755
71.8,0.0141353302164062,0.0140859573150843
71.85,0.0144118143033487,0.0143663717849438
71.9,0.0147108251177388,0.0146543171869352
71.95,0.0150153887096147,0.014938453871753
72,0.0153132303293583,0.015211247044624
72.05,0.0155955593266647,0.0154679866814715
72.1,0.0158565683408386,0.0157063259402429
72.15,0.0160933716632695,0.015926121434566
72.2,0.0163062401412044,0.0161294606352146
72.25,0.0164990576586507,0.0163208132431367
72.3,0.0166799601236167,0.0165072705023298
72.35,0.0168621372330474,0.0166988510413739
72.4,0.0170647873063009,0.0169088597274094
72.45,0.0173142195785609,0.0171542900664534
72.5,0.0176450979966104,0.017456262365484
72.55,0.0176893479086935,0.017276811711594
72.6,0.0189886997388702,0.017079121063115
72.65,0.086303332337846,0.0620116482258938
72.7,0.0237138654357867,0.0228097683029438
72.75,0.0213927828324293,0.0210481851415312
72.8,0.020779927480666,0.0205553044981891
72.85,0.0205414546665867,0.0203566457486428
72.9,0.0204297611235151,0.0202593720494415
72.95,0.0203665657317424,0.0201999366981841
73,0.0203193583698825,0.0201511130532362
73.05,0.0202721250114751,0.0200991494866224
73.1,0.0202160030016567,0.0200362786820818
73.15,0.0201456738392662,0.01995776439299
73.2,0.0200577726262722,0.0198605764072258
73.25,0.0199501143882721,0.0197427362750293
73.3,0.0198212886259774,0.0196029696860784
73.35,0.0196704344308464,0.0194405109863646
73.4,0.0194971104251668,0.0192549883546841
73.45,0.0193012174646336,0.0190463541700441
73.5,0.0190829522288515,0.0188148419147834
73.55,0.0188427797705356,0.0185609393056243
73.6,0.018581418273044,0.018285371707482
73.65,0.0182998321105029,0.0179890922692133
73.7,0.0179992309604566,0.0176732765739867
73.75,0.0176810737627859,0.0173393203925397
73.8,0.0173470770653967,0.0169888396116912
73.85,0.0169992279453207,0.016623671718812
73.9,0.0166398024017702,0.0162458784343124
73.95,0.0162713910632187,0.0158577492526808
74,0.0158969354903566,0.0154618058223117
74.05,0.0155197807299632,0.0150608073183113
74.1,0.0151437538944238,0.0146577573218883
74.15,0.0147732859969957,0.0142559133588586
74.2,0.0144136083410135,0.0138588014631426
74.25,0.0140710825205451,0.0134702405317021
74.3,0.0137537807715432,0.013094386217795
74.35,0.013472560731228,0.0127358150034941
74.4,0.0132431807555248,0.0123996945681339
74.45,0.0130907846290124,0.0120921513127735
74.5,0.0130603474455742,0.011821128869651
74.55,0.0132442094367347,0.0115986251406852
74.6,0.0138681725583981,0.0114475190521142
74.65,0.0156385896872787,0.011428130543226
74.7,0.0218933203102066,0.0117952848811367
74.75,0.0739327992953333,0.015408208498858
74.8,0.139083275196124,0.0178006741952912
74.85,0.023150971161917,0.011047594346408
74.9,0.0148152719917689,0.0107017030226535
74.95,0.0127642345315503,0.0107175876277139
75,0.012053710154454,0.0108354898615243
75.05,0.0112947789737066,0.0109685912968219
75.1,0.0110995414821983,0.0111776302366874
75.15,0.0112997913965536,0.0114528245494296
75.2,0.0117434525629542,0.011784251401895
75.25,0.0123043547180098,0.0121632202694613
75.3,0.0128893736452447,0.0125840217199801
75.35,0.0134424252769002,0.0130459466932286
75.4,0.0139451027487892,0.0135553628211867
75.45,0.014414012962597,0.0141275129311978
75.5,0.014895104103236,0.0147875929281907
75.55,0.0154554924472328,0.015570612771629
75.6,0.0161735087680468,0.0165195941739092
75.65,0.0171278866794119,0.0176818529802749
75.7,0.0183871753912452,0.0191034620454168
75.75,0.0200005232963779,0.0208224449224015
75.8,0.0219908894412452,0.0228617001199878
75.85,0.0243514659689609,0.0252229455864624
75.9,0.0270456557264802,0.0278829625410737
75.95,0.0300104230172394,0.030793050344732
76,0.0331623385140069,0.0338819539283197
76.05,0.0364052878234685,0.0370617833706774
76.1,0.0396386812348895,0.0402358433304443
76.15,0.0427650977791182,0.0433070013462161
76.2,0.0456965655568543,0.0461852959015084
76.25,0.0483590325085416,0.0487938376939135
76.3,0.0506949263958411,0.0510725384819679
76.35,0.0526639740678014,0.0529796588934273
76.4,0.0542426183983112,0.0544914988999659
76.45,0.0554224389385839,0.0556007281609308
76.5,0.0562079717453479,0.0563138864633284
76.55,0.0566142645979235,0.0566485218876835
76.6,0.0566644231171318,0.0566303243061492
76.65,0.0563873212166197,0.0562904923237605
76.7,0.0558155778080112,0.0556634661626674
76.75,0.0549838459292308,0.054785077666365
76.8,0.0539274210187203,0.0536911130136908
76.85,0.0526811498727395,0.052416250422244
76.9,0.0512786078213874,0.0509933187776364
76.95,0.0497515056754323,0.0494528184084995
77,0.0481292873033847,0.0478226476799553
77.05,0.0464388811625926,0.0461279853663904
77.1,0.0447045732038032,0.0443912866237356
77.15,0.0429479732750544,0.0426323584024065
77.2,0.0411880518359612,0.0408684875347883
77.25,0.0394412281136715,0.0391146011350626
77.3,0.0377214946147523,0.0373834442497152
77.35,0.0360405661163864,0.0356857639468821
77.4,0.0344080439093682,0.0340304923420797
77.45,0.0328315882145701,0.0324249235758577
77.5,0.0313170934137694,0.0308748816328858
77.55,0.0298688620925681,0.0293848772514079
77.6,0.0284897749602994,0.027958253139261
77.65,0.0271814545397899,0.0265973173752628
77.7,0.0259444211638166,0.0253034653159134
77.75,0.0247782403105606,0.0240772906024751
77.8,0.0236816606927648,0.0229186860223535
77.85,0.0226527428068721,0.021826935053143
77.9,0.021688977872063,0.0208007949370421
77.95,0.0207873972584148,0.0198385721150109
78,0.0199446726297776,0.0189381908076243
78.05,0.019157207122053,0.0180972554755686
78.1,0.0184212179445321,0.0173131078301603
78.15,0.0177328108407724,0.0165828790025292
78.2,0.0170880468751234,0.0159035374170727
78.25,0.0164830020301427,0.0152719328576991
78.3,0.0159138201069814,0.0146848371611774
78.35,0.0153767594189612,0.014138981922359
78.4,0.0148682337620566,0.0136310935539037
78.45,0.0143848481306275,0.0131579260024848
78.5,0.0139234296304871,0.0127162913908907
78.55,0.013481054018551,0.0123030888238339
78.6,0.0130550682763452,0.0119153315709216
78.65,0.012643109597065,0.0115501728153474
78.7,0.0122431211406195,0.0112049301383181
78.75,0.011853364882397,0.0108771088904448
78.8,0.0114724318537653,0.0105644245856285
78.85,0.011099250044795,0.0102648244390705
78.9,0.0107330902113119,0.00997650815696416
78.95,0.0103735698022044,0.00969794807384095
79,0.0100206551963804,0.00942790872126953
79.05,0.00967466241325088,0.00916546589959621
79.1,0.00933625643724867,0.00891002531338381
79.15,0.00900644927372052,0.00866134081892045
79.2,0.00868659683185868,0.00841953231954817
79.25,0.00837839471072555,0.00818510333198019
79.3,0.00808387294549862,0.00795895823257708
79.35,0.00780538975409228,0.00774241917785368
79.4,0.00754562430906291,0.00753724267785383
79.45,0.00730756854496206,0.00734563578305625
79.5,0.00709451800075522,0.00717027182884822
79.55,0.00691006168406538,0.00701430565955996
79.6,0.00675807093777303,0.00688138823558038
79.65,0.00664268728003714,0.00677568050218447
79.7,0.00656830918560514,0.00670186637700931
79.75,0.00653957777185421,0.0066651646869923
79.8,0.00656136135154128,0.00667133985951818
79.85,0.00663873881560451,0.00672671114641943
79.9,0.00677698181116171,0.00683816013122074
79.95,0.00698153568430926,0.00701313624215583
80,0.00725799916445358,0.00725965996655187
