"Freq [GHz]","AbsorbanceTM []","AbsorbanceTE []"
75,0.002454265832047,0.00242821232217838
75.03,0.00247381347702857,0.00244665636697428
75.06,0.00249448891138238,0.0024661580965194
75.09,0.00251639028026895,0.00248680670828449
75.12,0.00253962872378355,0.00250870342345411
75.15,0.00256433024885105,0.00253196318562976
75.18,0.00259063794192116,0.00255671666743273
75.21,0.00261871459485719,0.00258311264996836
75.24,0.002648745833426,0.00261132085513804
75.27,0.00268094386118567,0.00264153533168332
75.3,0.00271555195988171,0.00267397852081808
75.33,0.00275284992587799,0.00270890616142283
75.36,0.00279316067103264,0.00274661323786329
75.39,0.0028368582812579,0.00278744123066033
75.42,0.00288437791201912,0.00283178700586573
75.45,0.00293622801495996,0.00288011377986419
75.48,0.00299300554406912,0.00293296473120563
75.51,0.00305541500102791,0.00299098001548637
75.54,0.00312429246849166,0.00305491819091575
75.57,0.00320063618202904,0.00312568341094122
75.6,0.00328564575613033,0.00320436022875881
75.63,0.00338077298225659,0.00329225855028725
75.66,0.00348778827303953,0.00339097226503826
75.69,0.0036088685148471,0.00350245652830006
75.72,0.00374671459400611,0.00362913079994176
75.75,0.003904710634269,0.00377401794326382
75.78,0.00408714277015698,0.00394093456886557
75.81,0.00429950433197079,0.00413475540168462
75.84,0.00454892878054725,0.0043617865095823
75.87,0.00484481538200821,0.00463030182601731
75.9,0.00519975231218306,0.00495133004942616
75.93,0.00563091045926123,0.00533983495040224
75.96,0.0061622035421488,0.00581653103888136
75.99,0.00682773652189395,0.00641075771930177
76.02,0.00767750074140094,0.00716518042632752
76.05,0.00878715663921037,0.00814377643271091
76.08,0.0102756296837472,0.00944601320210914
76.11,0.0123385393724549,0.0112333739812408
76.14,0.0153160466138821,0.0137822113449302
76.17,0.0198422411581719,0.0175975347484121
76.2,0.02720970701472,0.023683040829701
76.23,0.0403866942648927,0.0342682253185337
76.26,0.0674160463811219,0.0551292371184766
76.29,0.135965314815258,0.104974473190274
76.32,0.374770069372017,0.266390320661241
76.35,0.965595763873161,0.807346349917976
76.38,0.464503392258447,0.637531230942666
76.41,0.1543604655001,0.19401437178841
76.44,0.0721114177510455,0.0834677044797466
76.47,0.0417040126588497,0.0459908675242273
76.5,0.0274316208420564,0.029348310271697
76.53,0.0196534717829328,0.0206036971894583
76.56,0.0149664426975537,0.0154671012851209
76.59,0.0119314308962856,0.0122027581810764
76.62,0.00985722681084966,0.0100035313817221
76.65,0.00837899215482929,0.00845376213123561
76.68,0.00728963734846844,0.00732203283022725
76.71,0.0064646281047378,0.00647132877249268
76.74,0.00582547323164517,0.005816390200162
76.77,0.00532073510544839,0.00530193817481783
76.8,0.00491557874494397,0.00489087434197943
76.83,0.0045857407345572,0.00455755932553281
76.86,0.00431390540958509,0.00428381882356776
76.89,0.00408745039389946,0.00405648280621285
76.92,0.00389700090969092,0.00386582079211195
76.95,0.00373547770720162,0.00370451904223457
76.98,0.00359745510741172,0.00356699546095951
77.01,0.0034787189417812,0.00344893061524165
77.04,0.00337595633789312,0.00334694037894501
77.07,0.00328653428239778,0.00325834338437769
77.1,0.00320833909011742,0.003180993173719
77.13,0.00313965837337615,0.00311315528109712
77.16,0.00307909313201438,0.00305341601797227
77.19,0.00302549149661591,0.00300061395752904
77.22,0.00297789824194949,0.0029537878895759
77.25,0.00293551592691965,0.00291213687652703
77.28,0.00289767470123903,0.00287498930119379
77.31,0.00286380864077052,0.00284177866809665
77.34,0.00283343704873829,0.00281202452753404
77.37,0.00280614956819403,0.00278531732118958
77.4,0.00278159424432856,0.00276130625563331
77.43,0.00275946788845494,0.00273968953309256
77.46,0.00273950825119784,0.00272020643115456
77.49,0.00272148762739111,0.00270263084273636
77.52,0.00270520760231163,0.00268676597794915
77.55,0.00269049471278238,0.00267243999566025
77.58,0.00267719684629619,0.00265950238380352
77.61,0.00266518023856321,0.00264782094581273
77.64,0.00265432695930845,0.00263727928088409
77.67,0.00264453279842192,0.00262777466857078
77.7,0.00263570548108272,0.00261921628517636
77.73,0.0026277631557885,0.00261152369506334
77.76,0.00262063310924776,0.00260462557019225
77.79,0.00261425066967957,0.00259845859901497
77.82,0.00260855826910589,0.0025929665549721
77.85,0.00260350463859438,0.00258809949831307
77.88,0.00259904411594525,0.00258381309058353
77.91,0.0025951360491121,0.00258006800493127
77.94,0.00259174428002329,0.00257682941681381
77.97,0.00258883669794907,0.0025740665642271
78,0.00258638485185159,0.00257175236680196
