"Freq [GHz]","AbsorbanceTM []","AbsorbanceTE []"
75,0.0155634171625748,0.0111635960176748
75.03,0.0210975290569793,0.014487321817933
75.06,0.0311875705012908,0.0203198144954242
75.09,0.0525684144249717,0.0321710362699552
75.12,0.110655099346884,0.063322493151008
75.15,0.353141236908411,0.182057789124817
75.18,0.884598973088801,0.440845617124196
75.21,0.369504934720567,0.793286191876209
75.24,0.115917373084701,0.226924141181732
75.27,0.0527483979020279,0.0774959381735663
75.3,0.0303804001531566,0.038073164370702
75.33,0.0200736288962494,0.0229129134028534
75.36,0.0145055070144136,0.0156093118336097
75.39,0.0111651023047419,0.0115558259888827
75.42,0.00900707135400836,0.0090794906181384
75.45,0.00753391520609026,0.00745842652644124
75.48,0.00648454507866469,0.00634059922192909
75.51,0.00571131816146042,0.00553794601333235
75.54,0.00512567293250976,0.00494265777794367
75.57,0.00467188609742641,0.00448935811879791
75.6,0.00431348125770414,0.00413654154172671
75.63,0.0040257720827892,0.00385683269849557
75.66,0.0037915691964433,0.00363158414211673
75.69,0.00359860533131229,0.00344773782256824
75.72,0.0034379357626404,0.00329592813269231
75.75,0.00330291375931524,0.00316929554920331
75.78,0.00318851648866292,0.00306272226946414
75.81,0.00309089083384362,0.0029723266729933
75.84,0.0030070408261077,0.00289512111100454
75.87,0.00293460840381909,0.00282877540095605
75.9,0.00287171696724997,0.0027714502983105
75.93,0.0028168579870409,0.00272167824620417
75.96,0.00276880763945597,0.00267827666149623
75.99,0.00272656471152954,0.00264028399027971
76.02,0.00268930378985766,0.00260691194376417
76.05,0.00265633957705447,0.00257750939518664
76.08,0.00262709940835759,0.00255153478952097
76.11,0.0026011018800054,0.00252853484313731
76.14,0.00257794008018186,0.0025081279422452
76.17,0.00255726832027314,0.00248999108821057
76.2,0.00253879155238024,0.00247384954595642
76.23,0.00252225686587815,0.00245946857089741
76.26,0.00250744660671243,0.00244664674837147
76.29,0.00249417277174757,0.00243521059286622
76.32,0.00248227241354881,0.00242501014027374
76.35,0.00247160385027767,0.00241591532740715
76.38,0.0024620435217152,0.00240781300033754
76.41,0.00245348336731632,0.00240060442850865
76.44,0.0024458286278578,0.00239420322752559
76.47,0.00243899599342956,0.00238853361475877
76.5,0.00243291203579055,0.00238352893717075
76.53,0.00242751187560608,0.00237913042319948
76.56,0.00242273804465698,0.00237528611998694
76.59,0.0024185395107722,0.00237194998480983
76.62,0.00241487083915604,0.00236908110536538
76.65,0.00241169146890474,0.00236664302855882
76.68,0.00240896508669031,0.00236460318057297
76.71,0.00240665908341575,0.00236293236466789
76.74,0.00240474408199698,0.00236160432547239
76.77,0.00240319352601248,0.00236059537002242
76.8,0.00240198332087993,0.00235988403765897
76.83,0.00240109152108525,0.00235945081268529
76.86,0.00240049805725362,0.00235927787394796
76.89,0.0024001844981526,0.0023593488766942
76.92,0.00240013384388937,0.00235964876324246
76.95,0.00240033034633536,0.0023601635987287
76.98,0.00240075935411799,0.00236088042945026
77.01,0.00240140717957071,0.0023617871613717
77.04,0.00240226098558183,0.00236287245688738
77.07,0.00240330869012939,0.00236412564774857
77.1,0.002404538887532,0.00236553666329342
77.13,0.0024059407845205,0.00236709597218654
77.16,0.00240750415013236,0.00236879453675742
77.19,0.00240921927871651,0.0023706237792821
77.22,0.00241107696460963,0.00237257555883919
77.25,0.0024130684881295,0.00237464215845362
77.28,0.00241518561225929,0.002376816281913
77.31,0.00241742058903527,0.00237909105935308
77.34,0.00241976617562134,0.00238146006158535
77.37,0.0024222156594228,0.00238391732258181
77.4,0.00242476289165383,0.00238645736953214
77.43,0.00242740232941019,0.00238907526056076
77.46,0.0024301290857025,0.00239176662956475
77.49,0.00243293898713526,0.00239452773787874
77.52,0.00243582863909586,0.00239735553263187
77.55,0.00243879549839121,0.00240024771175329
77.58,0.0024418379529042,0.00240320279520256
77.61,0.00244495540803025,0.00240622020217607
77.64,0.00244814838000573,0.00240930033443121
77.67,0.00245141859613618,0.00241244466570101
77.7,0.00245476910100462,0.0024156558363122
77.73,0.00245820436935063,0.00241893775368196
77.76,0.00246173042554743,0.00242229569860408
77.79,0.00246535496859535,0.00242573643627508
77.82,0.00246908750379471,0.00242926833317603
77.85,0.00247293948011773,0.00243290147886388
77.88,0.0024769244334657,0.00243664781282293
77.91,0.00248105813619703,0.00244052125677152
77.94,0.00248535875179057,0.00244453785128596
77.97,0.0024898469956619,0.00244871589772888
78,0.00249454630144519,0.00245307610482237
