"Freq [GHz]","AbsorbanceTM []","AbsorbanceTE []"
75,0.00328329181945652,0.00275089401073059
75.03,0.00337742773459626,0.00280253805026365
75.06,0.00348313481755169,0.00285982049366329
75.09,0.00360241581349441,0.00292363678104735
75.12,0.0037377357569397,0.00299507120576892
75.15,0.00389215609028515,0.00307544679780292
75.18,0.00406951651361187,0.0031663913084613
75.21,0.00427468501806239,0.00326992552727357
75.24,0.00451390696526077,0.00338858301202005
75.27,0.0047953007219429,0.00352557469130987
75.3,0.00512957460280739,0.00368501865301718
75.33,0.00553108563295923,0.00387226639842375
75.36,0.00601943972682473,0.00409437480269537
75.39,0.00662197401661502,0.00436080322081145
75.42,0.00737772315634966,0.00468446745217965
75.45,0.00834397445682789,0.0050833757746005
75.48,0.00960753159455496,0.00558324579746472
75.51,0.0113049644458967,0.00622183694457723
75.54,0.0136609892185158,0.00705641697170845
75.57,0.0170658077942306,0.00817725490495336
75.6,0.0222415305288537,0.00973344609605753
75.63,0.030605177127452,0.0119860521680706
75.66,0.0430104827296253,0.0154289270836702
75.69,0.0779210307916048,0.0211157182291947
75.72,0.158136172975893,0.0319056797456564
75.75,0.430949853757684,0.0530942265171804
75.78,0.997094696215567,0.107012790332837
75.81,0.405634169094775,0.310305636714016
75.84,0.149261013747402,0.942063324170578
75.87,0.0735499879358753,0.324665525138764
75.9,0.0435708418974192,0.108126159866161
75.93,0.0289999232946759,0.051789556524809
75.96,0.0208972121375315,0.0304792235506632
75.99,0.015951018040232,0.0203435710372978
76.02,0.012719471535188,0.014776195958264
76.05,0.010496564232744,0.0114043418014363
76.08,0.00890454765264304,0.00921344440944183
76.11,0.00772683462830759,0.00771252318489801
76.14,0.00683216729198177,0.00664102364235808
76.17,0.00613730804618196,0.00585045071445789
76.2,0.00558743700448228,0.00525122609197248
76.23,0.00514527574791457,0.00478674973482207
76.26,0.00478476913476367,0.00441985481414509
76.29,0.00448726805939426,0.00412532881710725
76.32,0.00423914363035505,0.00388558601753997
76.35,0.00403025117998523,0.00368806143217615
76.38,0.00385291526247022,0.00352358646742068
76.41,0.00370124321931209,0.00338534560117421
76.44,0.00357065124857314,0.0032681883326624
76.47,0.00345753104958624,0.00316816467833481
76.5,0.00335901137175776,0.00308220496251099
76.53,0.00327278482462823,0.00300789489616959
76.56,0.00319698032319804,0.00294331488625976
76.59,0.00313006793744619,0.00288692345300667
76.62,0.00307078707609232,0.0028374714523528
76.65,0.00301809169209066,0.00279393814735407
76.68,0.00297110805472212,0.00275548299746164
76.71,0.00292910190192075,0.00272140890273609
76.74,0.00289145266681601,0.00269113389719977
76.77,0.00285763309173159,0.00266416914504208
76.8,0.00282719298028178,0.00264010168582296
76.83,0.00279974615614909,0.00261858079401045
76.86,0.00277495992564625,0.00259930711342371
76.89,0.00275254651000245,0.00258202394037754
76.92,0.00273225603781346,0.0025665101836212
76.95,0.00271387078155172,0.0025525746426851
76.98,0.00269720039231847,0.00254005133021384
77.01,0.00268207794015207,0.00252879562627717
77.04,0.00266835660798947,0.00251868109981668
77.07,0.00265590691906636,0.00250959686844776
77.1,0.00264461440165153,0.0025014453949278
77.13,0.00263437761388874,0.00249414063956221
77.16,0.00262510646705683,0.00248760650473323
77.19,0.00261672079648079,0.00248177551961837
77.22,0.00260914913936783,0.00247658772386605
77.25,0.00260232768604063,0.00247198971658158
77.28,0.00259619937697653,0.00246793384321919
77.31,0.00259071312275816,0.00246437749782491
77.34,0.00258582312848321,0.00246128252261069
77.37,0.00258148830679183,0.00245861468952047
77.4,0.0025776717663023,0.00245634325107247
77.43,0.00257434036478144,0.00245444055032806
77.46,0.00257146431786481,0.00245288168125413
77.49,0.00256901685514033,0.0024516441918041
77.52,0.00256697391764638,0.00245070782414158
77.55,0.00256531389089742,0.00245005428657086
77.58,0.00256401736870326,0.0024496670527675
77.61,0.00256306694374331,0.00244953118463109
77.64,0.00256244702150799,0.00244963317566449
77.67,0.00256214365493168,0.00244996081248139
77.7,0.00256214439633051,0.00245050305131411
77.73,0.00256243816526147,0.00245124990835277
77.76,0.00256301513047164,0.0024521923622991
77.79,0.00256386660320951,0.00245332226657924
77.82,0.00256498494176982,0.00245463227127152
77.85,0.0025663634654739,0.0024561157530737
77.88,0.00256799637645744,0.00245776675184106
77.91,0.00256987868968894,0.0024595799142253
77.94,0.00257200616878273,0.00246155044208773
77.97,0.00257437526813831,0.00246367404632819
78,0.00257698308014997,0.00246594690493951
