"Freq [GHz]","AbsorbanceTM []","AbsorbanceTE []"
70,0.00298595945863289,0.00300107597750887
70.05,0.00291512941355465,0.0029277623988333
70.1,0.00286161833872867,0.00287315175087444
70.15,0.00282307357326261,0.0028347898954425
70.2,0.0027973446472096,0.00281045503485888
70.25,0.00278248477920162,0.00279816760701823
70.3,0.00277675597625204,0.00279620855101204
70.35,0.00277864046949761,0.0028031520660986
70.4,0.00278686351973867,0.00281792423950367
70.45,0.00280043736672453,0.00283990978950754
70.5,0.00281874646399871,0.00286915306962343
70.55,0.00284171852136639,0.00290675597869172
70.6,0.00287018843051967,0.00295572124655674
70.65,0.00290674109071998,0.00302290942287387
70.7,0.00295790755334868,0.00312416864594567
70.75,0.0030409207182156,0.00330025552251745
70.8,0.00321030213913054,0.00368024958190005
70.85,0.00371490409778374,0.00486293307420071
70.9,0.00703107749321885,0.0130697120155274
70.95,0.00832857534486497,0.0165518578727882
71,0.00352377578561647,0.0046752093408049
71.05,0.003021583942588,0.00341490112036957
71.1,0.00288565009881314,0.00307474436655064
71.15,0.00282463783649289,0.00293228851084804
71.2,0.0027848991028,0.00285218964176825
71.25,0.00275079851845261,0.00279484172394939
71.3,0.00271588627611485,0.00274469615355111
71.35,0.0026760850546238,0.00269343053536419
71.4,0.002628158776388,0.00263514880602467
71.45,0.00258781601697289,0.00258246677861851
71.5,0.0039148746869585,0.00379332145129674
71.55,0.00411612890270319,0.00418788071587217
71.6,0.00311367931714857,0.00314855397866931
71.65,0.00291986460225968,0.00294057165742745
71.7,0.00283960824308327,0.00285289719923076
71.75,0.00279866749697388,0.00280700299045678
71.8,0.00277966209819702,0.00278424254088983
71.85,0.00277811214951007,0.00277963101444534
71.9,0.00279440893064453,0.00279331016881157
71.95,0.00283201489162965,0.00282858992864354
72,0.002897561855426,0.00289197964952281
72.05,0.00300215373896418,0.0029944484289457
72.1,0.00316426977756123,0.00315428232061399
72.15,0.00341572074491825,0.00340296345121982
72.2,0.00381438313482063,0.00379774029862923
72.25,0.00447374000259371,0.00445076428633229
72.3,0.00563955208294509,0.00560461277666902
72.35,0.00792124560244223,0.00785980198671699
72.4,0.013152059583057,0.0130184393277437
72.45,0.0286746434156359,0.0282741914829601
72.5,0.0945020369878946,0.0928472970041921
72.55,0.145134796477755,0.145968867420389
72.6,0.0457154314437497,0.0459733955794762
72.65,0.0200938579339701,0.0201203624174572
72.7,0.0118879967167823,0.0118773344075738
72.75,0.00833966157469146,0.00832332190393958
72.8,0.00649102071585472,0.00647552128923079
72.85,0.0054039022080089,0.00539063683692542
72.9,0.00470929965720945,0.00469836086924691
72.95,0.00423908352590208,0.00423017939722969
73,0.0039084636264155,0.00390116638974292
73.05,0.00367185827101546,0.00366567317664757
73.1,0.00350431479904512,0.00349869668438307
73.15,0.00339314130651691,0.00338749719453257
73.2,0.00333419191723516,0.00332788354208458
73.25,0.00333066693942574,0.00332302105270565
73.3,0.00339369643824239,0.00338403173626534
73.35,0.00354473982711578,0.00353242558300482
73.4,0.00382050386778099,0.00380507954570986
73.45,0.00428202434897695,0.00426343962949938
73.5,0.00503124289977364,0.00501034221669394
73.55,0.00624164957138729,0.00622116575040665
73.6,0.00821562829180889,0.00820225091862581
73.65,0.0114904544889756,0.0114991207562254
73.7,0.0170158424649811,0.0170780473419582
73.75,0.0263322980298299,0.0265076753483611
73.8,0.0411043563375106,0.0414718075594469
73.85,0.0598360919019002,0.0603802768501116
73.9,0.0726653424893536,0.0731346741547794
73.95,0.0704513281134818,0.0706752684839103
74,0.0589698468032779,0.0590561227796649
74.05,0.0470453289757252,0.0470997869905758
74.1,0.0377126605987518,0.0377665746456423
74.15,0.0309208956709208,0.0309756014085908
74.2,0.0260018028425589,0.0260527538390143
74.25,0.0223764417926149,0.0224195436398634
74.3,0.0196419782205884,0.0196744986995462
74.35,0.0175320309227042,0.0175523699597093
74.4,0.0158711013972853,0.0158784697920038
74.45,0.0145422034980571,0.0145363970251182
74.5,0.0134661250894571,0.0134473922649322
74.55,0.0125884446022011,0.0125574193544429
74.6,0.0118713694968229,0.0118290451002611
74.65,0.0112885311109407,0.0112362599073393
74.7,0.0108216037582809,0.010761113202438
74.75,0.010458066117097,0.0103914854760025
74.8,0.010189690746097,0.010119585050523
74.85,0.010011506444026,0.00994091562380639
74.9,0.00992107331102732,0.00985355521967379
74.95,0.00991796817719304,0.00985764465616268
75,0.0100034137818419,0.00995501916329466
75.05,0.00989721955195522,0.0098539278294083
75.1,0.00981420288849855,0.00977417338479369
75.15,0.00975133782876103,0.0097132216572976
75.2,0.009706389207365,0.00966920984778519
75.25,0.00967773144612483,0.009640793311534
75.3,0.00966421223972724,0.00962703052486136
75.35,0.00966505006712604,0.00962729685432762
75.4,0.00967975737632198,0.00964122021593894
75.45,0.00970808341163731,0.00966863351069358
75.5,0.0097499722045663,0.00970954004063562
75.55,0.0098055323965397,0.00976408908575721
75.6,0.00987501641718369,0.00983255955149065
75.65,0.00995880718600906,0.0099153501477065
75.7,0.0100574109978101,0.0100129749831077
75.75,0.0101714556346878,0.010126063789699
75.8,0.0103016930514895,0.010255366256799
75.85,0.0104490062306479,0.0104017601739594
75.9,0.010614420013454,0.0105662632709475
75.95,0.0107991159049629,0.0107500488164851
76,0.0110044510274335,0.0109544652026666
76.05,0.0112319815763727,0.0111810599121015
76.1,0.0114834913220846,0.0114316084473024
76.15,0.0117610259096841,0.0117081490079362
76.2,0.0120669339532887,0.0120130239425321
76.25,0.0124039162081199,0.0123489292896308
76.3,0.0127750844558089,0.0127189740777144
76.35,0.0131840321702068,0.0131267514908369
76.4,0.0136349195713977,0.0135764245564721
76.45,0.0141325763541552,0.014072829704539
76.5,0.0146826262325503,0.0146216024224617
76.55,0.015291638527843,0.0152293303460517
76.6,0.0159673133965746,0.0159037405382915
76.65,0.016718709030482,0.0166539295037332
76.7,0.0175565213343991,0.0174906467487632
76.75,0.0184934292933716,0.0184266455299195
76.8,0.0195445225396862,0.019477117915871
76.85,0.0207278315326239,0.0206602354578825
76.9,0.0220649851258317,0.0219978215137193
76.95,0.0235820246429463,0.023516186178427
77,0.0253104067542589,0.0252471587580991
77.05,0.0272882269229269,0.027229353349477
77.1,0.0295616857955283,0.0295096952856881
77.15,0.0321867924193308,0.0321452098045494
77.2,0.0352312309215727,0.035205009511154
77.25,0.0387761745296952,0.0387722766320531
77.3,0.0429175461300477,0.0429457512793575
77.35,0.0477656840737434,0.0478396889858529
77.4,0.0534413978069551,0.053580250239967
77.45,0.0600647643204494,0.0602945825273705
77.5,0.0677305974769138,0.0680862865814921
77.55,0.0764618212249821,0.076987986013624
77.6,0.0861314775018687,0.0868808692203518
77.65,0.09635258720416,0.0973795086315397
77.7,0.106364452268198,0.107710974902842
77.75,0.115000571600883,0.116678061185435
77.8,0.120872626502035,0.122851423479971
77.85,0.122842823255939,0.125071420127851
77.9,0.12061549228101,0.123081427363306
77.95,0.115071606054216,0.117894831916604
78,0.108193235093903,0.111758325649854
78.05,0.103112892755958,0.108375338366732
78.1,0.106227891862833,0.115871310605786
78.15,0.142587700696684,0.167519712979126
78.2,0.383062042417599,0.495335793783942
78.25,0.23752818814483,0.303775761784665
78.3,0.0845116623660384,0.100212329586214
78.35,0.0521467549788901,0.0583365889578452
78.4,0.0392486015047405,0.042396107161861
78.45,0.0319675244418017,0.0338088588210438
78.5,0.0270595271384294,0.0282358636762392
78.55,0.0234269250614025,0.0242254827557693
78.6,0.020592890069451,0.0211598705708347
78.65,0.0183094936482934,0.0187263561895857
78.7,0.0164298996120672,0.0167451817933815
78.75,0.0148586733261665,0.0151028334403924
78.8,0.0135295765357213,0.0137225315202119
78.85,0.0123944432270993,0.0125496620070328
78.9,0.0114170536532983,0.0115439032098797
78.95,0.0105694885378602,0.0106746395822134
79,0.00982981906752067,0.00991812015232285
79.05,0.00918056850163029,0.00925560701771888
79.1,0.00860764664688507,0.00867211878392526
79.15,0.00809958874204941,0.00815554930825535
79.2,0.00764699843091365,0.00769603309333111
79.25,0.00724213220604142,0.00728547845517347
79.3,0.00687858465005142,0.00691721816567836
79.35,0.00655104715246713,0.00658574438646231
79.4,0.00625512122602023,0.00628650536021835
79.45,0.00598717307062968,0.00601574817402728
79.5,0.00574421975347028,0.0057703964439616
79.55,0.00552383993817773,0.00554795484715609
79.6,0.00532410390706517,0.0053464345667863
79.65,0.0051435189162693,0.00516429522572082
79.7,0.00498098687151927,0.00500039997458357
79.75,0.00483577200961649,0.00485398119303992
79.8,0.00470747679434902,0.00472461485213449
79.85,0.00459602462923747,0.00461220202432633
79.9,0.00450164828985511,0.00451695635985749
79.95,0.00442488320875456,0.00443939660072978
80,0.00436656492363297,0.00438034339716953
