"Freq [GHz]","AbsorbanceTM []","AbsorbanceTE []"
70,0.0233672313610797,0.0252514909695433
70.05,0.0210296324753473,0.0218219376997103
70.1,0.0190729044196545,0.0192396189797942
70.15,0.017423948295507,0.0172646177025496
70.2,0.0160258551746664,0.0157294566914209
70.25,0.0148338674362525,0.01451592497725
70.3,0.0138124513173215,0.0135397652713611
70.35,0.0129331492480896,0.0127404083350779
70.4,0.0121729862630108,0.0120739952637049
70.45,0.0115132748224714,0.0115085728126408
70.5,0.0109387093691924,0.0110207449643418
70.55,0.0104366738540855,0.010593313313663
70.6,0.00999670739785774,0.0102135972664567
70.65,0.00961008850137479,0.00987222707843383
70.7,0.00926950893430356,0.00956226936532012
70.75,0.00896881604521838,0.00927858876012266
70.8,0.00870280769723708,0.00901737887881937
70.85,0.0084670679918748,0.00877581573176733
70.9,0.00825783483494391,0.00855180039850734
70.95,0.00807189253264762,0.00834376725584096
71,0.00790648419140061,0.00815054066994048
71.05,0.0077592398837576,0.00797122773659009
71.1,0.00762811744022884,0.00780513798087534
71.15,0.00751135340906883,0.00765172331638542
71.2,0.00740742224852731,0.00751053329256235
71.25,0.0073150022191083,0.00738118191950921
71.3,0.00723294675503672,0.00726332328414747
71.35,0.00716026033790595,0.00715663385559673
71.4,0.00709607808656487,0.00706079988598851
71.45,0.00703964842784199,0.00697550869305874
71.5,0.00699031833225761,0.00690044289684466
71.55,0.00694752069377724,0.0068352768986959
71.6,0.00691076350944475,0.00677967505555399
71.65,0.00687962057520375,0.00673329112692722
71.7,0.00685372346455138,0.00669576866880728
71.75,0.00683275459623445,0.00666674212204799
71.8,0.0068164412300874,0.00664583839994226
71.85,0.00680455025721116,0.00663267882427765
71.9,0.00679688367199227,0.00662688129287292
71.95,0.00679327463240909,0.00662806258925752
72,0.00679358402924302,0.00663584076531942
72.05,0.00679769749784642,0.00664983754481296
72.1,0.00680552281640945,0.00666968070851326
72.15,0.00681698764285488,0.0066950064315302
72.2,0.00683203755069062,0.00672546155232112
72.25,0.00685063432936939,0.00676070575845777
72.3,0.00687275452059322,0.00680041368003514
72.35,0.00689838816603805,0.00684427688533984
72.4,0.00692753774622135,0.00689200577720572
72.45,0.00696021729290375,0.00694333139063585
72.5,0.0069964516608273,0.00699800709509679
72.55,0.00703627594702771,0.00705581020680868
72.6,0.00707973504752546,0.00711654351736379
72.65,0.00712688334456379,0.0071800367479401
72.7,0.00717778451759699,0.00724614793800038
72.75,0.00723251147463999,0.00731476478045634
72.8,0.00729114640099304,0.00738580591552196
72.85,0.00735378092444838,0.00745922219744233
72.9,0.00742051639760422,0.00753499794987156
72.95,0.00749146429925263,0.00761315222717951
73,0.00756674675877256,0.00769374010131618
73.05,0.00764649720880939,0.00777685399568506
73.1,0.00773086117386401,0.00786262509060254
73.15,0.00781999720421445,0.0079512248276199
73.2,0.00791407796729748,0.00804286654389996
73.25,0.00801329151103691,0.00813780727165159
73.3,0.00811784271779703,0.00823634974351439
73.35,0.00822795497037154,0.00833884464954016
73.4,0.00834387205752218,0.00844569319975241
73.45,0.00846586035118357,0.00855735005324043
73.5,0.00859421129603366,0.00867432668576462
73.55,0.00872924425978594,0.00879719527759537
73.6,0.00887130980585282,0.00892659321780787
73.65,0.00902079346342977,0.00906322833411155
73.7,0.0091781200912302,0.00920788497437253
73.75,0.00934375895597539,0.00936143108048892
73.8,0.00951822968267646,0.00952482640978791
73.85,0.00970210928182336,0.00969913206646034
73.9,0.00989604052592485,0.00988552149917965
73.95,0.0101007420435008,0.010085293086057
74,0.0103170206368441,0.010299884337749
74.05,0.0105457865354771,0.0105308875568003
74.1,0.0107880726060995,0.0107800664056419
74.15,0.0110450590196181,0.0110493720988696
74.2,0.0113181056364665,0.0113409565506317
74.25,0.0116087956128763,0.0116571772336438
74.3,0.0119189958154082,0.0120005837435285
74.35,0.0122509432512259,0.0123738672948926
74.4,0.0126073732328397,0.0127797383672924
74.45,0.0129917171919387,0.0132206690640976
74.5,0.0134084219594985,0.0136983877796081
74.55,0.0138634916809398,0.0142129392682764
74.6,0.0143654617915536,0.0147610461383224
74.65,0.0149272696015762,0.0153335829466923
74.7,0.0155701416210152,0.0159128418077877
74.75,0.0163324929143571,0.0164740596333336
74.8,0.0172929850789056,0.0170081748573285
74.85,0.0186411288600822,0.017618006168176
74.9,0.0209530134429674,0.0188652285452953
74.95,0.0268012825515499,0.0235740813724961
75,0.0633342269672953,0.0633012830136616
75.05,0.283267183257225,0.281563141036575
75.1,0.0369800742072767,0.0446957003945245
75.15,0.0268571199252871,0.0304216604330079
75.2,0.0254129264896853,0.0278212045140346
75.25,0.0257390972809588,0.0279226903339187
75.3,0.0267514039940272,0.029151607601135
75.35,0.028180253570409,0.0310758330397489
75.4,0.0299625472250685,0.033571894602817
75.45,0.0321171936724237,0.036636880692095
75.5,0.0347181486807282,0.0403348971313006
75.55,0.0378990679137701,0.044783446050857
75.6,0.0418751088500078,0.0501565450634979
75.65,0.0469739192260081,0.0566988054990247
75.7,0.0536530710951679,0.064750649075361
75.75,0.0624479456592465,0.0747881629736736
75.8,0.0737902962926102,0.0874841362661433
75.85,0.0877874267734525,0.103800092619078
75.9,0.104284368750123,0.125121183923012
75.95,0.12332530787409,0.153439394022088
76,0.145576992301879,0.191549641116309
76.05,0.172373189127302,0.243067663718902
76.1,0.205531591584271,0.311610068772389
76.15,0.247085158256018,0.397489327012656
76.2,0.298714268566231,0.490033912865655
76.25,0.360334163522466,0.560719628540864
76.3,0.427276519443316,0.577199767575653
76.35,0.486943438163684,0.535773893263813
76.4,0.519913880334132,0.461141982554845
76.45,0.511399394964845,0.378169211941299
76.5,0.464804228732208,0.301640145189876
76.55,0.398913995098973,0.238432947324146
76.6,0.333146196696518,0.189604204554619
76.65,0.281635985493652,0.153045024338735
76.7,0.275153444846793,0.125870113081959
76.75,0.182663754598319,0.105553530336603
76.8,0.145570902673296,0.0901885341071884
76.85,0.12279416314122,0.078413981144549
76.9,0.105455713426052,0.0692743352583557
76.95,0.0918735328885787,0.0620980035637321
77,0.0811073604323698,0.0564085089799128
77.05,0.0724971194335864,0.05186343407824
77.1,0.0655590238541904,0.0482132572529622
77.15,0.0599334903367619,0.0452736381932439
77.2,0.0553506958608148,0.0429066259601842
77.25,0.0516063514462514,0.0410077758682627
77.3,0.0485444221761383,0.0394972046184264
77.35,0.0460447272427177,0.0383132979944318
77.4,0.0440139890089614,0.0374082274994287
77.45,0.0423793272236286,0.0367447170521014
77.5,0.041083494701748,0.0362936852368645
77.55,0.0400813613040734,0.0360325090740619
77.6,0.0393372997781157,0.0359437348658075
77.65,0.0388232289997187,0.0360141148760464
77.7,0.0385171411003291,0.0362338846044319
77.75,0.0384019885046762,0.0365962200596859
77.8,0.0384648416983582,0.0370968315065039
77.85,0.0386962531467716,0.0377336620945898
77.9,0.0390897803172336,0.0385066681954102
77.95,0.0396416333395097,0.0394176642315796
78,0.0403504219301285,0.0404702189902024
78.05,0.0412169828031882,0.0416695933342421
78.1,0.0422442735645544,0.0430227111574941
78.15,0.0434373224959737,0.0445381565538762
78.2,0.0448032259634051,0.0462261905732195
78.25,0.0463511865946543,0.0480987806294469
78.3,0.0480925859169605,0.0501696345537906
78.35,0.0500410847790242,0.0524542293214416
78.4,0.0522127434596461,0.0549698214363237
78.45,0.0546261506154625,0.0577354215657436
78.5,0.0573025457542212,0.0607717099533761
78.55,0.060265913179134,0.0641008610197613
78.6,0.063543015623075,0.0677462350114557
78.65,0.0671633222012165,0.0717318812961646
78.7,0.0711587668986285,0.0760817819286236
78.75,0.0755632497063902,0.0808187460486127
78.8,0.080411762343209,0.0859628472946442
78.85,0.0857389850865766,0.0915292814686796
78.9,0.0915771639209123,0.0975255169989088
78.95,0.097953045824638,0.103947627558494
79,0.104883639683169,0.110775751254948
79.05,0.112370606632227,0.117968736295107
79.1,0.120393204865443,0.125458233495705
79.15,0.128899968874904,0.133142799524109
79.2,0.137799738839353,0.140882975553315
79.25,0.146953288090288,0.148498748246163
79.3,0.156167558041169,0.155771149732564
79.35,0.165195188211124,0.162449789294459
79.4,0.173742234482735,0.168267566468143
79.45,0.181486209019501,0.172962508738196
79.5,0.188104504349849,0.176304694569068
79.55,0.193310068553316,0.178124078023668
79.6,0.196887874339641,0.178333608867559
79.65,0.198723869224884,0.176942221017668
79.7,0.198819061541524,0.174054355390534
79.75,0.197285271347603,0.1698560827138
79.8,0.194324331194713,0.164591278554968
79.85,0.190196845697819,0.158533359794175
79.9,0.185188325794175,0.151958218714737
79.95,0.179579431789741,0.145122513924045
80,0.173624301848065,0.138249290410314
