"Freq [GHz]","AbsorbanceTM []","AbsorbanceTE []"
75,0.00236187941906407,0.00236306018349697
75.03,0.00237805833544358,0.00237923690011976
75.06,0.00239382777413544,0.00239500404135029
75.09,0.00240937336123626,0.0024105470807827
75.12,0.00242487857994689,0.00242604936089785
75.15,0.00244052476765189,0.00244169209214595
75.18,0.00245649124765945,0.00245765448615709
75.21,0.00247295562772709,0.00247411405506071
75.24,0.00249009430094049,0.00249124711241666
75.27,0.00250808318994877,0.00250922951670296
75.3,0.00252709878015922,0.00252823770289645
75.33,0.00254731949458165,0.00254845005482207
75.36,0.00256892747048332,0.00257004867844079
75.39,0.0025921108080077,0.0025932216462462
75.42,0.00261706637383519,0.00261816579587537
75.45,0.00264400325985903,0.00264509018299486
75.48,0.002673147018597,0.00267422031020048
75.51,0.00270474482732597,0.00270580328398573
75.54,0.00273907177253718,0.00274011409137298
75.57,0.00277643850004716,0.00277746324150996
75.6,0.00281720054902146,0.00281820609036976
75.63,0.00286176978706054,0.00286275426546434
75.66,0.0029106284989705,0.00291158974281536
75.69,0.00296434686785574,0.00296528231420523
75.72,0.00302360484514619,0.00302451144042337
75.75,0.00308921976689824,0.00309009384654968
75.78,0.0031621815833266,0.00316301872432567
75.81,0.00324369829620508,0.00324449313358
75.84,0.00333525525306133,0.00333600124770728
75.87,0.00343869349334203,0.00343938263267185
75.9,0.00355631464782924,0.00355693705235371
75.93,0.00369102338855198,0.00369156678471561
75.96,0.00384652382495887,0.00384697282487334
75.99,0.00402759474872227,0.00402792984651834
76.02,0.00424048233202623,0.00424067847664455
76.05,0.00449347150106105,0.00449349602280058
76.08,0.00479773555539686,0.00479754508309693
76.11,0.00516863061452288,0.00516816637337569
76.14,0.00562772257812827,0.00562690300867486
76.17,0.00620606166371296,0.00620477045044554
76.2,0.00694966545302367,0.0069477313597881
76.23,0.00792909058063185,0.00792625195024987
76.26,0.00925698204017134,0.00925282093292745
76.29,0.011122192271491,0.0111160043224743
76.32,0.013861022407525,0.0138515389904643
76.35,0.0181197917195501,0.0181045263996568
76.38,0.0252704512949746,0.0252439575915122
76.41,0.0386456220931274,0.0385940039745221
76.44,0.0680553697485593,0.0679344700070444
76.47,0.151948534100324,0.151564525737866
76.5,0.499842128450228,0.498154865699471
76.53,0.789090107675313,0.790931739424088
76.56,0.221905718381922,0.222498083977303
76.59,0.0859591043525445,0.0861071788237117
76.62,0.044721672314865,0.0447753341782379
76.65,0.0276021961295476,0.0276268856884901
76.68,0.0189895976643542,0.0190029062452007
76.71,0.014081382171537,0.0140894232490716
76.74,0.0110311546993676,0.0110364595738616
76.77,0.0090114346200153,0.00901519135813644
76.8,0.00760783187019454,0.00761065299576746
76.83,0.00659464681623023,0.00659687205948822
76.86,0.00584060188461055,0.00584243105563165
76.89,0.00526519796459801,0.00526675440421154
76.92,0.00481688382336021,0.0048182468420217
76.95,0.00446142582301978,0.00446264824477138
76.98,0.00417537853228711,0.00417649664105446
77.01,0.00394225316013863,0.00394329256873971
77.04,0.00375018229419921,0.00375116152820398
77.07,0.0035904491317722,0.00359138188365826
77.1,0.00345653421372594,0.0034574307975207
77.13,0.00334348173671273,0.00334435004788636
77.16,0.0032474687263403,0.00324831488762212
77.19,0.00316550617801492,0.00316633498127838
77.22,0.00309522795578665,0.00309604316881884
77.25,0.00303473921883435,0.0030355438009485
77.28,0.00298250595891081,0.00298330221407939
77.31,0.00293727339844385,0.00293806308498812
77.34,0.00289800495568437,0.00289878936537091
77.37,0.00286383606842688,0.00286461608379007
77.4,0.00283403889024714,0.00283481502626881
77.43,0.00280799503559592,0.00280876747006187
77.46,0.00278517434887993,0.00278594294447887
77.49,0.0027651182272882,0.00276588254769705
77.52,0.00274742641942138,0.00274818574096047
77.55,0.00273174649911556,0.00273249981917789
77.58,0.00271776541687674,0.00271851146000068
77.61,0.00270520267563434,0.00270593989787404
77.64,0.00269380478722026,0.00269453137930498
77.67,0.0026833407447413,0.00268405463438737
77.7,0.00267359830588487,0.00267429715954914
77.73,0.0026643809285084,0.00266506215278739
77.76,0.00265550523253877,0.00265616597537599
77.79,0.0026467988902078,0.00264743604203854
77.82,0.00263809886584299,0.00263870906076258
77.85,0.00262924994260683,0.00262982955963675
77.88,0.00262010348612796,0.00262064865063183
77.91,0.00261051640406329,0.00261102298935145
77.94,0.00260035026917571,0.00260081389833555
77.97,0.00258947057858516,0.00258988662654525
78,0.0025777461273625,0.00257810972321248
