"Freq [GHz]","AbsorbanceTM []","AbsorbanceTE []"
30,0.00464199747176119,0.00552144607678351
30.01,0.00466884154305502,0.00555958317719007
30.02,0.0046955536265666,0.00559750403551462
30.03,0.00472213571732449,0.00563521137343292
30.04,0.00474858981184612,0.00567270791608021
30.05,0.00477491790808682,0.00570999639198733
30.06,0.00480112200544591,0.00574707953308407
30.07,0.00482720410469029,0.00578396007462578
30.08,0.00485316620798304,0.00582064075521116
30.09,0.00487901031882854,0.0058571243167308
30.1,0.00490473844205841,0.00589341350434236
30.11,0.00493035258380536,0.00592951106645023
30.12,0.0049558547514581,0.00596541975465437
30.13,0.00498124695367141,0.00600114232374338
30.14,0.00500653120033145,0.00603668153168402
30.15,0.00503170950251874,0.00607204013955309
30.16,0.00505678387248665,0.00610722091152716
30.17,0.0050817563236556,0.00614222661487718
30.18,0.00510662887056834,0.0061770600199057
30.19,0.00513140352886288,0.00621172389992886
30.2,0.00515608231528231,0.00624622103127603
30.21,0.00518066724763677,0.00628055419325091
30.22,0.00520516034475227,0.00631472616807705
30.23,0.00522956362649585,0.00634873974091699
30.24,0.00525387911368813,0.00638259769978455
30.25,0.00527810882816493,0.00641630283560335
30.26,0.00530225479268509,0.00644985794210073
30.27,0.00532631903093372,0.00648326581582159
30.28,0.00535030356753485,0.00651652925612656
30.29,0.00537421042794384,0.00654965106508787
30.3,0.00539804163851665,0.00658263404755366
30.31,0.00542179922642916,0.00661548101104925
30.32,0.00544548521969601,0.00664819476581791
30.33,0.00546910164709169,0.00668077812471324
30.34,0.00549265053822356,0.00671323390328515
30.35,0.00551613392340677,0.00674556491963341
30.36,0.00553955383372462,0.00677777399448631
30.37,0.00556291230095995,0.00680986395111172
30.38,0.00558621135758042,0.006841837615295
30.39,0.00560945303675897,0.00687369781536817
30.4,0.00563263937230385,0.00690544738212528
30.41,0.00565577239867576,0.00693708914883828
30.42,0.00567885415091507,0.00696862595118208
30.43,0.00570188666469951,0.0070000606272772
30.44,0.00572487197626259,0.00703139601762337
30.45,0.00574781212241526,0.00706263496508797
30.46,0.00577070914047839,0.00709378031486219
30.47,0.00579356506832995,0.00712483491448035
30.48,0.00581638194431477,0.00715580161373675
30.49,0.00583916180729738,0.00718668326472949
30.5,0.00586190669658171,0.00721748272177813
30.51,0.00588461865192058,0.00724820284141503
30.52,0.00590729971351756,0.0072788464824004
30.53,0.0059299519219691,0.00730941650564376
30.54,0.00595257731827414,0.00733991577421089
30.55,0.00597517794379487,0.00737034715328444
30.56,0.00599775584029538,0.00740071351018579
30.57,0.0060203130498182,0.00743101771425658
30.58,0.00604285161479601,0.00746126263695235
30.59,0.00606537357792347,0.0074914511517189
30.6,0.0060878809822128,0.00752158613403009
30.61,0.006110375870928,0.00755167046132388
30.62,0.00613286028762827,0.00758170701303351
30.63,0.00615533627609166,0.00761169867050082
30.64,0.00617780588031369,0.00764164831698
30.65,0.0062002711445337,0.00767155883763737
30.66,0.00622273411315311,0.00770143311948202
30.67,0.00624519683077807,0.00773127405138174
30.68,0.00626766134214907,0.00776108452399549
30.69,0.00629012969218856,0.00779086742980595
30.7,0.00631260392593136,0.00782062566305308
30.71,0.00633508608853728,0.00785036211972134
30.72,0.00635757822526994,0.0078800796975157
30.73,0.00638008238147048,0.00790978129583209
30.74,0.00640260060255815,0.00793946981574933
30.75,0.00642513493403252,0.00796914815999616
30.76,0.00644768742139723,0.00799881923290524
30.77,0.00647026011022112,0.0080284859404256
30.78,0.00649285504606922,0.00805815119007147
30.79,0.00651547427450483,0.0080878178908943
30.8,0.00653811984109609,0.0081174889534914
30.81,0.00656079379136099,0.00814716728992693
30.82,0.00658349817080273,0.00817685581376504
30.83,0.00660623502484314,0.00820655743998755
30.84,0.00662900639885344,0.00823627508501423
30.85,0.00665181433811823,0.00826601166664875
30.86,0.00667466088781565,0.00829577010404547
30.87,0.0066975480930368,0.00832555331773654
30.88,0.00672047799872322,0.00835536422951166
30.89,0.00674345264970777,0.00838520576249313
30.9,0.00676647409064779,0.00841508084101694
30.91,0.00678954436605783,0.00844499239067797
30.92,0.00681266552026405,0.00847494333824961
30.93,0.00683583959740841,0.00850493661168072
30.94,0.00685906864143648,0.00853497514006729
30.95,0.00688235469608145,0.00856506185361916
30.96,0.0069056998048308,0.00859519968360589
30.97,0.0069291060109441,0.00862539156236486
30.98,0.00695257535741878,0.00865564042324241
30.99,0.00697610988702102,0.00868594920061139
31,0.00699971164217883,0.00871632082973584
31.01,0.00702338266507763,0.00874675824686433
31.02,0.00704712499758897,0.00877726438912185
31.03,0.00707094068123881,0.00880784219446584
31.04,0.00709483175726444,0.00883849460172526
31.05,0.00711880026652456,0.00886922455047878
31.06,0.00714284824955091,0.00890003498109804
31.07,0.00716697774647812,0.00893092883464452
31.08,0.00719119079709074,0.0089619090528984
31.09,0.00721548944076955,0.00899297857828307
31.1,0.00723987571646922,0.00902414035380472
31.11,0.00726435166275263,0.00905539732308436
31.12,0.00728891931773801,0.00908675243026968
31.13,0.00731358071909816,0.00911820861999879
31.14,0.00733833790404204,0.00914976883736152
31.15,0.00736319290932019,0.00918143602789023
31.16,0.00738814777120056,0.00921321313748702
31.17,0.00741320452542304,0.00924510311236171
31.18,0.00743836520726893,0.0092771088990703
31.19,0.00746363185144372,0.00930923344436374
31.2,0.00748900649215289,0.00934147969523924
31.21,0.00751449116303327,0.00937385059883167
31.22,0.00754008789714145,0.00940634910237792
31.23,0.00756579872699481,0.0094389781532247
31.24,0.00759162568449412,0.00947174069870127
31.25,0.0076175708009204,0.00950463968610604
31.26,0.0076436361069615,0.00953767806267714
31.27,0.00766982363264823,0.00957085877550268
31.28,0.0076961354073749,0.00960418477149827
31.29,0.00772257345987626,0.00963765899735658
31.3,0.00774913981818004,0.00967128439943299
31.31,0.00777583650964297,0.009705063923789
31.32,0.00780266556090725,0.0097390005160507
31.33,0.00782962899788098,0.00977309712140095
31.34,0.00785672884574384,0.00980735668449328
31.35,0.00788396712891593,0.00984178214941578
31.36,0.00791134587102171,0.00987637645958905
31.37,0.00793886709492719,0.0099111425577586
31.38,0.00796653282266568,0.00994608338587732
31.39,0.00799434507547014,0.00998120188509566
31.4,0.00802230587370079,0.0100165009956219
31.41,0.00805041723690159,0.0100519836567498
31.42,0.00807868118369581,0.0100876528066753
31.43,0.00810709973184764,0.0101235113825372
31.44,0.00813567489817657,0.0101595623202559
31.45,0.00816440869858959,0.0101958085545059
31.46,0.00819330314803479,0.0102322530186276
31.47,0.00822236026049006,0.0102688986445566
31.48,0.00825158204895005,0.0103057483627379
31.49,0.00828097052538912,0.0103428051020373
31.5,0.00831052770071716,0.0103800717896479
31.51,0.00834025558485885,0.0104175513510695
31.52,0.0083701561866083,0.0104552467099329
31.53,0.00840023151366442,0.010493160787963
31.54,0.00843048357264486,0.0105312965049058
31.55,0.00846091436897967,0.0105696567783717
31.56,0.00849152590694913,0.0106082445237989
31.57,0.00852232018964461,0.0106470626543282
31.58,0.00855329921893244,0.0106861140807144
31.59,0.00858446499544951,0.010725401711231
31.6,0.00861581951854729,0.0107649284515406
31.61,0.0086473647863089,0.0108046972046353
31.62,0.00867910279546225,0.0108447108706655
31.63,0.00871103554141894,0.0108849723468956
31.64,0.00874316501819816,0.0109254845275484
31.65,0.00877549321841919,0.010966250303712
31.66,0.00880802213325149,0.0110072725631977
31.67,0.0088407537524281,0.011048554190456
31.68,0.00887369006418259,0.0110900980664422
31.69,0.00890683305517914,0.0111319070684414
31.7,0.00894018471056868,0.0111739840700268
31.71,0.00897374701389875,0.0112163319408622
31.72,0.00900752194707277,0.0112589535465974
31.73,0.00904151149036037,0.0113018517487337
31.74,0.00907571762230153,0.011345029404456
31.75,0.00911014231974894,0.0113884893665498
31.76,0.0091447875577344,0.0114322344831719
31.77,0.00917965530952791,0.0114762675977924
31.78,0.00921474754651652,0.0115205915489622
31.79,0.00925006623822866,0.0115652091702252
31.8,0.0092856133522512,0.0116101232899155
31.81,0.00932139085420691,0.011655336731016
31.82,0.00935740070769364,0.0117008523109772
31.83,0.00939364487428485,0.0117466728415905
31.84,0.00943012531343879,0.0117928011287711
31.85,0.00946684398244746,0.011839239972386
31.86,0.00950380283645558,0.0118859921661235
31.87,0.00954100382831247,0.0119330604972369
31.88,0.00957844890864257,0.0119804477464414
31.89,0.00961614002567435,0.0120281566876449
31.9,0.00965407912527516,0.0120761900878097
31.91,0.00969226815088031,0.0121245507067377
31.92,0.0097307090433969,0.0121732412968583
31.93,0.00976940374121416,0.0122222646030469
31.94,0.00980835418007731,0.0122716233623691
31.95,0.00984756229310624,0.0123213203039358
31.96,0.00988703001066171,0.0123713581486118
31.97,0.00992675926034381,0.0124217396088578
31.98,0.00996675196690333,0.0124724673884538
31.99,0.0100070100521673,0.0125235441822866
32,0.0100475354350041,0.0125749726761206
32.01,0.0100883300312548,0.0126267555463615
32.02,0.0101293957536126,0.0126788954597705
32.03,0.0101707345116335,0.0127313950732627
32.04,0.0102123482116235,0.0127842570336461
32.05,0.0102542387565574,0.0128374839773188
32.06,0.01029640804601,0.0128910785300349
32.07,0.0103388579761076,0.0129450433066514
32.08,0.0103815904394333,0.0129993809108302
32.09,0.0104246073249368,0.0130540939347472
32.1,0.0104679105178558,0.0131091849588317
32.11,0.0105115018996591,0.0131646565514524
32.12,0.0105553833479376,0.0132205112686516
32.13,0.0105995567363338,0.0132767516538069
32.14,0.0106440239344169,0.0133333802373341
32.15,0.0106887868076608,0.0133903995363969
32.16,0.0107338472172946,0.0134478120545664
32.17,0.0107792070202151,0.0135056202814787
32.18,0.0108248680689214,0.0135638266925474
32.19,0.0108708322114021,0.0136224337486046
32.2,0.0109171012910031,0.0136814438955228
32.21,0.0109636771463945,0.0137408595639459
32.22,0.0110105616113941,0.0138006831688496
32.23,0.0110577565149024,0.0138609171092342
32.24,0.0111052636807889,0.0139215637677228
32.25,0.0111530849277701,0.0139826255102288
32.26,0.0112012220692937,0.0140441046855009
32.27,0.0112496769134619,0.0141060036248393
32.28,0.0112984512628503,0.0141683246416009
32.29,0.0113475469144287,0.0142310700308508
32.3,0.0113969656594226,0.0142942420689345
32.31,0.011446709283208,0.0143578430130886
32.32,0.0114967795651474,0.0144218751009694
32.33,0.0115471782784943,0.014486340550286
32.34,0.0115979071902296,0.0145512415583002
32.35,0.0116489680609707,0.0146165803014424
32.36,0.0117003626447592,0.0146823589347927
32.37,0.0117520926889834,0.0147485795916904
32.38,0.0118041599342074,0.0148152443832108
32.39,0.0118565661140232,0.0148823553977309
32.4,0.0119093129549143,0.0149499147004379
32.41,0.0119624021760748,0.0150179243328075
32.42,0.0120158354892962,0.0150863863121695
32.43,0.0120696145987228,0.0151553026311094
32.44,0.0121237412008088,0.0152246752570635
32.45,0.0121782169840603,0.0152945061317283
32.46,0.012233043628899,0.0153647971705384
32.47,0.0122882228074743,0.0154355502621452
32.48,0.0123437561835086,0.0155067672678538
32.49,0.01239964541211,0.0155784500210929
32.5,0.0124558921395707,0.0156506003268225
32.51,0.0125124980032222,0.0157232199609996
32.52,0.0125694646311879,0.0157963106699386
32.53,0.0126267936422525,0.0158698741698067
32.54,0.0126844866456145,0.0159439121459501
32.55,0.0127425452407013,0.0160184262523232
32.56,0.0128009710169906,0.0160934181108963
32.57,0.0128597655537477,0.0161688893109733
32.58,0.0129189304198677,0.0162448414086116
32.59,0.0129784671736335,0.0163212759259741
32.6,0.0130383773624908,0.0163981943506517
32.61,0.0130986625228494,0.0164755981350441
32.62,0.013159324179805,0.0165534886956347
32.63,0.0132203638469636,0.0166318674123905
32.64,0.0132817830261938,0.0167107356280263
32.65,0.0133435832073387,0.0167900946473045
32.66,0.0134057658680363,0.0168699457363551
32.67,0.0134683324734365,0.0169502901219821
32.68,0.0135312844759214,0.0170311289908675
32.69,0.013594623314905,0.017112463488916
32.7,0.013658350416546,0.0171942947204896
32.71,0.0137224671934592,0.0172766237476361
32.72,0.0137869750444718,0.0173594515893596
32.73,0.0138518753543422,0.01744277922085
32.74,0.0139171694934644,0.0175266075726809
32.75,0.0139828588175815,0.0176109375300286
32.76,0.0140489446675407,0.017695769931928
32.77,0.0141154283689313,0.0177811055703851
32.78,0.014182311231834,0.0178669451896422
32.79,0.0142495945504719,0.0179532894852695
32.8,0.0143172796029448,0.0180401391034219
32.81,0.0143853676509076,0.0181274946399431
32.82,0.0144538599392,0.0182153566395302
32.83,0.0145227576955818,0.0183037255948668
32.84,0.014592062130384,0.0183926019457735
32.85,0.0146617744361475,0.0184819860783196
32.86,0.0147318957872868,0.0185718783239034
32.87,0.0148024273397867,0.018662278958437
32.88,0.0148733702308078,0.0187531882013779
32.89,0.0149447255783139,0.018844606214813
32.9,0.0150164944807626,0.0189365331026027
32.91,0.0150886780167,0.0190289689093989
32.92,0.0151612772443762,0.0191219136196953
32.93,0.0152342932013914,0.0192153671569384
32.94,0.0153077269042939,0.019309329382534
32.95,0.0153815793481999,0.0194038000948973
32.96,0.015455851506374,0.0194987790284838
32.97,0.0155305443298384,0.0195942658528073
32.98,0.0156056587469755,0.0196902601714742
32.99,0.0156811956630817,0.0197867615211756
33,0.0157571559599777,0.0198837693706977
33.01,0.0158335404955429,0.0199812831198971
33.02,0.0159103501033365,0.0200793020987519
33.03,0.0159875855920799,0.0201778255662296
33.04,0.0160652477452914,0.020276852709402
33.05,0.0161433373207619,0.0203763826422806
33.06,0.0162218550501616,0.0204764144048969
33.07,0.0163008016385047,0.0205769469621696
33.08,0.0163801777637369,0.0206779792029087
33.09,0.0164599840762392,0.0207795099387522
33.1,0.0165402211983142,0.0208815379031033
33.11,0.0166208897237381,0.0209840617500735
33.12,0.0167019902172335,0.021087080053399
33.13,0.0167835232139616,0.021190591305399
33.14,0.0168654892190483,0.0212945939158823
33.15,0.0169478887070366,0.021399086211085
33.16,0.0170307221213597,0.0215040664325802
33.17,0.0171139898738231,0.0216095327361887
33.18,0.0171976923440706,0.0217154831909143
33.19,0.017281829878999,0.0218219157778112
33.2,0.0173664027923064,0.0219288283889898
33.21,0.0174514113638102,0.0220362188264226
33.22,0.0175368558389761,0.0221440848009137
33.23,0.017622736428308,0.022252423930997
33.24,0.017709053306768,0.0223612337418332
33.25,0.0177958066132256,0.0224705116641506
33.26,0.0178829964498211,0.0225802550331295
33.27,0.0179706228814063,0.0226904610873071
33.28,0.0180586859349225,0.0228011269675572
33.29,0.0181471855987965,0.0229122497159084
33.3,0.0182361218223144,0.0230238262745568
33.31,0.0183254945150062,0.0231358534847426
33.32,0.0184153035460339,0.0232483280857052
33.33,0.0185055487435157,0.0233612467136031
33.34,0.0185962298939026,0.0234746059004306
33.35,0.0186873467413494,0.0235884020730411
33.36,0.0187788989870048,0.0237026315519919
33.37,0.0188708862884291,0.0238172905506311
33.38,0.0189633082588182,0.0239323751739222
33.39,0.0190561644664446,0.0240478814175571
33.4,0.0191494544339019,0.0241638051668628
33.41,0.0192431776374296,0.0242801421958089
33.42,0.0193373335062242,0.0243968881660395
33.43,0.0194319214217559,0.0245140386258588
33.44,0.0195269407170476,0.0246315890093005
33.45,0.0196223906759657,0.0247495346351483
33.46,0.0197182705324754,0.0248678707059647
33.47,0.0198145794699691,0.0249865923072292
33.48,0.0199113166205276,0.0251056944063959
33.49,0.0200084810641258,0.0252251718519527
33.5,0.0201060718279887,0.0253450193726207
33.51,0.0202040878857693,0.0254652315764344
33.52,0.0203025281568086,0.0255858029499046
33.53,0.0204013915054454,0.0257067278572428
33.54,0.0205006767401807,0.0258280005394833
33.55,0.0206003826129459,0.0259496151137785
33.56,0.0207005078183145,0.0260715655725582
33.57,0.0208010509927633,0.0261938457828628
33.58,0.0209020107138618,0.0263164494855843
33.59,0.0210033854995099,0.0264393702948255
33.6,0.021105173807124,0.0265626016971559
33.61,0.0212073740329003,0.0266861370510885
33.62,0.0213099845109571,0.026809969586378
33.63,0.0214130035125727,0.0269340924034804
33.64,0.021516429245384,0.0270584984730042
33.65,0.0216202598525727,0.0271831806351776
33.66,0.0217244934120633,0.0273081315993883
33.67,0.021829127935743,0.0274333439437245
33.68,0.0219341613685731,0.027558810114501
33.69,0.0220395915878601,0.0276845224259622
33.7,0.0221454164023877,0.0278104730598714
33.71,0.0222516335516336,0.0279366540652178
33.72,0.0223582407049142,0.0280630573579337
33.73,0.0224652354606119,0.0281896747206961
33.74,0.0225726153452922,0.028316497802663
33.75,0.0226803778129577,0.0284435181195114
33.76,0.0227885202441619,0.0285707270526798
33.77,0.0228970399452413,0.0286981158505293
33.78,0.0230059341474355,0.0288256756270697
33.79,0.0231152000061294,0.0289533973626604
33.8,0.0232248345999972,0.0290812719038809
33.81,0.0233348349301861,0.0292092899636854
33.82,0.0234451979195327,0.0293374421215873
33.83,0.0235559204117105,0.0294657188238191
33.84,0.0236669991704413,0.0295941103836287
33.85,0.0237784308786664,0.0297226069815786
33.86,0.0238902121377861,0.0298511986659471
33.87,0.0240023394668143,0.0299798753531278
33.88,0.0241148093016083,0.0301086268280935
33.89,0.0242276179940821,0.0302374427449624
33.9,0.0243407618113625,0.0303663126275407
33.91,0.0244542369350877,0.0304952258700079
33.92,0.0245680394606146,0.0306241717376432
33.93,0.0246821653961753,0.0307531393674993
33.94,0.0247966106622206,0.0308821177693245
33.95,0.0249113710906151,0.0310110958264134
33.96,0.0250264424238514,0.0311400622965167
33.97,0.025141820314398,0.0312690058129277
33.98,0.0252575003239218,0.0313979148855109
33.99,0.0253734779225482,0.031526777901829
34,0.025489748488191,0.0316555831283801
34.01,0.0256063073058573,0.0317843187118737
34.02,0.0257231495669019,0.0319129726805278
34.03,0.0258402703684222,0.0320415329455143
34.04,0.0259576647125631,0.032169987302433
34.05,0.0260753275058425,0.0322983234327957
34.06,0.0261932535585458,0.0324265289057317
34.07,0.0263114375841342,0.0325545911796074
34.08,0.0264298741985234,0.0326824976037617
34.09,0.0265485579196286,0.0328102354204152
34.1,0.0266674831666941,0.0329377917664606
34.11,0.0267866442597567,0.0330651536755001
34.12,0.0269060354191277,0.0331923080798766
34.13,0.027025650764835,0.0333192418127456
34.14,0.027145484316124,0.0334459416102882
34.15,0.0272655299909857,0.0335723941139872
34.16,0.0273857816057017,0.0336985858729016
34.17,0.0275062328743233,0.0338245033460989
34.18,0.0276268774083657,0.0339501329051621
34.19,0.027747708716285,0.0340754608366753
34.2,0.0278687202031906,0.0342004733448755
34.21,0.0279899051704516,0.0343251565543785
34.22,0.0281112568153506,0.0344494965128818
34.23,0.0282327682308201,0.0345734791940474
34.24,0.0283544324051053,0.0346970905004013
34.25,0.028476242221585,0.0348203162663175
34.26,0.0285981904584672,0.0349431422610653
34.27,0.0287202697886484,0.0350655541919479
34.28,0.0288424727795261,0.0351875377075028
34.29,0.0289647918928674,0.0353090784007442
34.3,0.0290872194846588,0.0354301618124999
34.31,0.0292097478050916,0.0355507734348379
34.32,0.0293323689984782,0.0356708987145169
34.33,0.0294550751032617,0.0357905230565346
34.34,0.0295778580520147,0.0359096318277283
34.35,0.0297007096715035,0.0360282103604096
34.36,0.0298236216827875,0.0361462439561566
34.37,0.0299465857013457,0.0362637178895505
34.38,0.0300695932372408,0.0363806174120891
34.39,0.0301926356952987,0.0364969277560021
34.4,0.0303157043753668,0.0366126341383448
34.41,0.0304387904726211,0.0367277217649415
34.42,0.0305618850778336,0.0368421758345143
34.43,0.0306849791777446,0.0369559815427668
34.44,0.0308080636554989,0.0370691240866755
34.45,0.0309311292910444,0.0371815886686
34.46,0.0310541667616563,0.0372933605007133
34.47,0.0311771666424282,0.0374044248092211
34.48,0.0313001194068679,0.0375147668387857
