"Freq [GHz]","AbsorbanceTM []","AbsorbanceTE []"
75,0.00262192933525784,0.0026143726167962
75.03,0.00263831721189622,0.00263006325004311
75.06,0.00265534291592506,0.00264634625504045
75.09,0.0026730582950496,0.0026632693499119
75.12,0.0026915205290069,0.00268088512447484
75.15,0.00271079281443753,0.00269925166064222
75.18,0.00273094515499217,0.00271843324750409
75.21,0.0027520552760355,0.00273850120841546
75.24,0.00277420968661168,0.00275953486027136
75.27,0.00279750491708752,0.00278162263035076
75.3,0.00282204896619453,0.0028048633606802
75.33,0.0028479629995668,0.00282936783738286
75.36,0.00287538335110005,0.0028552605905543
75.39,0.00290446389066301,0.00288268202096142
75.42,0.00293537883730088,0.00291179092359606
75.45,0.00296832611694464,0.00294276749561795
75.48,0.0030035313886172,0.00297581693796656
75.51,0.00304125289661872,0.00301117378936677
75.54,0.00308178734889708,0.00304910716867279
75.57,0.0031254770782122,0.00308992715063017
75.6,0.00317271881756909,0.00313399256524027
75.63,0.00322397452103329,0.00318172059729804
75.66,0.00327978479558177,0.00323359867911488
75.69,0.00334078569212282,0.00329019932688346
75.72,0.00340772985455617,0.00335219878697812
75.75,0.0034815133735967,0.00342040065700111
75.78,0.00356321018018502,0.00349576606407742
75.81,0.00365411650608316,0.00357945257369396
75.84,0.00375580893689975,0.00367286485046658
75.87,0.00387022103723744,0.00377772132388166
75.9,0.00399974568296024,0.00389614293020091
75.93,0.00414737348085958,0.00403077272782792
75.96,0.00431688263033514,0.0041849393429656
75.99,0.00451310335749755,0.00436288367279525
76.02,0.00474229246829627,0.00457007855045621
76.05,0.00501267386740079,0.00481368778216396
76.08,0.00533523495347132,0.00510323882393815
76.11,0.00572492765088628,0.00545163116191139
76.14,0.00620252786580899,0.00587668711855083
76.17,0.00679760162261633,0.00640360725601086
76.2,0.00755340160019424,0.00706898990906701
76.23,0.0085352784451842,0.00792767062520505
76.26,0.00984582093216657,0.00906490006062988
76.29,0.0116536684260778,0.0106192312930425
76.32,0.0142521734016693,0.0128284474089152
76.35,0.0181892633452763,0.016129519090502
76.38,0.0245872070752493,0.0213998537747299
76.41,0.0360482364160538,0.0306245709328163
76.44,0.0597594204124678,0.0491222308504761
76.47,0.121403009365017,0.095231248277344
76.5,0.34808121018242,0.257462231930985
76.53,0.816979466357807,0.654406077914913
76.56,0.572461896768862,0.733942806563729
76.59,0.172658712621203,0.217549101184381
76.62,0.0696169616096188,0.0803602487454861
76.65,0.0378624530702442,0.0413840426259435
76.68,0.024195353637617,0.0255630445578473
76.71,0.0170925994360634,0.0176612962622709
76.74,0.0129398820461926,0.0131693253915438
76.77,0.010308114234919,0.0103809905429424
76.8,0.00853933715830812,0.00853659957802722
76.83,0.00729616827107671,0.00725656047164536
76.86,0.00639110104445317,0.00633419540850455
76.89,0.00571318894804063,0.00564923218576852
76.92,0.00519340495731802,0.00512786285958911
76.95,0.00478699612106326,0.00472278366868428
76.98,0.00446393004799983,0.00440256076049572
77.01,0.00420345441941461,0.00414565660099397
77.04,0.00399086390796077,0.00393692170284077
77.07,0.00381550755576632,0.00376545446097054
77.1,0.00366952130130471,0.00362325203013469
77.13,0.00354699919508938,0.00350433514998305
77.16,0.00344343810417824,0.00340416591520598
77.19,0.00335535750910565,0.00331925166148117
77.22,0.00328003408530231,0.00324687002405732
77.25,0.00321531314996648,0.00318487463527573
77.28,0.00315947257745453,0.00313155555552103
77.31,0.00311112315907081,0.00308553752564367
77.34,0.0030691346808861,0.00304570478295962
77.37,0.00303258041568011,0.00301114481396858
77.4,0.00300069497568645,0.00298110579179167
77.43,0.00297284198055492,0.00295496402930884
77.46,0.00294848901711575,0.00293219884721119
77.49,0.00292718807434722,0.00291237299173419
77.52,0.00290856013003882,0.00289511724778946
77.55,0.00289228291436661,0.00288011825340528
77.58,0.0028780811253265,0.00286710877821517
77.61,0.00286571855176043,0.00285585991425241
77.64,0.00285499169176917,0.0028461747622579
77.67,0.00284572455199028,0.00283788329631107
77.7,0.0028377643846117,0.00283083816218943
77.73,0.00283097817507139,0.00282491122169737
77.76,0.00282524973383602,0.0028199906961367
77.79,0.00282047727604418,0.00281597879275708
77.82,0.00281657139914004,0.00281278972453602
77.85,0.00281345338515682,0.00281034805026625
77.88,0.00281105376993351,0.00280858727758493
77.91,0.0028093111330858,0.00280744868313809
77.94,0.00280817107017284,0.00280688031166287
77.97,0.00280758531725589,0.00280683612453503
78,0.00280751100257204,0.0028072752728181
