"Freq [GHz]","AbsorbanceTM []","AbsorbanceTE []"
70,0.031212414517678,0.0106572004156278
70.05,0.0238848889114144,0.0108088857298996
70.1,0.0206724976434254,0.0109975356810234
70.15,0.0191425211734885,0.011220693610167
70.2,0.0184138273367136,0.0114771925143982
70.25,0.0181214853491362,0.0117669749996454
70.3,0.018099678825401,0.012090954415243
70.35,0.0182680913092452,0.0124509106698101
70.4,0.0185861752151437,0.0128494157043029
70.45,0.0190330261936091,0.0132897848045163
70.5,0.0195978777627526,0.0137760509360634
70.55,0.0202753428374294,0.0143129601319081
70.6,0.0210629051060788,0.0149059866921171
70.65,0.0219595239429135,0.0155613675845794
70.7,0.0229648037629497,0.0162861559530139
70.75,0.0240784464086862,0.0170882939593238
70.8,0.0252998322120017,0.0179767051045094
70.85,0.0266276369687367,0.0189614052162613
70.9,0.0280594216832166,0.0200536285179341
70.95,0.0295911455869891,0.021265958845187
71,0.0312165593096693,0.0226124431212823
71.05,0.0329264403716517,0.0241086399901697
71.1,0.0347076436165615,0.025771515076751
71.15,0.0365419625202591,0.0276190306947196
71.2,0.0384048428588004,0.0296691939392665
71.25,0.0402640669709496,0.0319382426519423
71.3,0.042078637803866,0.0344376124006718
71.35,0.0437982242685725,0.0371694154787808
71.4,0.0453636431183201,0.0401204453592465
71.45,0.0467088761073182,0.0432551989549504
71.5,0.0477649687113391,0.0465089788870904
71.55,0.0484657758601845,0.0497826423919029
71.6,0.048754957116136,0.052940914076483
71.65,0.0485930576827555,0.0558163528796665
71.7,0.0479632031382605,0.0582208782920947
71.75,0.0468740869380843,0.0599657082823175
71.8,0.0453595418332139,0.0608881308645435
71.85,0.0434748332220246,0.0608800359976557
71.9,0.0412905639126051,0.0599102697212625
71.95,0.0388854835098835,0.0580330003684085
72,0.0363394862349798,0.0553784619514984
72.05,0.0337277628361214,0.0521289089781344
72.1,0.0311166238833332,0.0484877332883447
72.15,0.0285610914759258,0.0446507548466643
72.2,0.0261040550989342,0.040785892117598
72.25,0.0237766277962711,0.0370231087070502
72.3,0.0215992989600302,0.0334531039786313
72.35,0.0195835194497022,0.0301316687640545
72.4,0.0177334335011942,0.0270866687819544
72.45,0.0160475598080539,0.0243254518529041
72.5,0.014520303027954,0.021841432939637
72.55,0.013143238610609,0.0196193566137013
72.6,0.011906156878865,0.0176391945503489
72.65,0.0107978790621985,0.0158788588570099
72.7,0.00980687224923804,0.0143159846456743
72.75,0.00892169583110336,0.0129290281764253
72.8,0.00813131217589247,0.0116978866536811
72.85,0.00742529142125536,0.0106041980319797
72.9,0.00679393604843759,0.00963143585143023
72.95,0.00622834633621672,0.00876487923306613
73,0.00572044347388723,0.00799151197570003
73.05,0.00526296331750742,0.00729988592792097
73.1,0.00484943060285847,0.00667997081103699
73.15,0.00447412087095611,0.00612300390998655
73.2,0.00413201535439223,0.00562134729059294
73.25,0.00381875253508279,0.0051683565128976
73.3,0.00353057892889819,0.004758262518058
73.35,0.00326430080804918,0.00438606700792277
73.4,0.0030172379723955,0.00404745089545611
73.45,0.00278718028320168,0.00373869508347491
73.5,0.00257234745054113,0.0034566128156005
73.55,0.0023713525185759,0.00319849310197795
73.6,0.0021831696676301,0.0029620553145242
73.65,0.00200710747660171,0.00274541618409696
73.7,0.0018427899724367,0.00254707264088005
73.75,0.00169015038778386,0.00236590850108054
73.8,0.00154944844210325,0.00220124315684878
73.85,0.00142133634377584,0.00205296510522956
73.9,0.00130703732005466,0.00192185964337654
73.95,0.00120881792723793,0.00181044374590777
74,0.00113135739601744,0.00172535961638476
74.05,0.00108653513156587,0.00168577004108006
74.1,0.00111673551662861,0.00176472176800768
74.15,0.00152039222389821,0.0024973725890064
74.2,0.328769372847497,0.629144899609086
74.25,0.0010072532142722,0.00179032530662937
74.3,0.000720007030559744,0.00115900297298965
74.35,0.000681125897925794,0.00102854910983508
74.4,0.000680171581313949,0.000966415802804321
74.45,0.000695442752429387,0.000926282564861269
74.5,0.000721468352176347,0.000897731994720319
74.55,0.000755489193304149,0.000877267220100508
74.6,0.000795515196527652,0.000863423845135602
74.65,0.000840502739732685,0.000855830694416859
74.7,0.000891734679942524,0.000855421707284476
74.75,0.000956060030183337,0.000865431335186795
74.8,0.00105302642810956,0.000893499871002734
74.85,0.00123091855079949,0.000955839179402784
74.9,0.00160463202080563,0.00108557934509312
74.95,0.00245171624490137,0.00135010664133828
75,0.00448086700566641,0.00188897359301277
75.05,0.00757896109385692,0.00277967274565127
75.1,0.0162014372865142,0.00576640035229214
75.15,0.136770585140726,0.130737371803394
75.2,0.165540206891985,0.0132261168490396
75.25,0.155885193450571,0.0115344488645576
75.3,0.0390916604751278,0.0246867931828841
75.35,0.0170006916091717,0.0895959179980981
75.4,0.0101168846619786,0.358553500594494
75.45,0.00717210827299164,0.0825341979013194
75.5,0.00564673901088941,0.0291593831029144
75.55,0.00497132043142057,0.0162820043217877
75.6,0.00740757310677653,0.0168615237624404
75.65,0.0294136699810836,0.0575336693626713
75.7,0.0090148768626761,0.00793089206707287
75.75,0.0111570328529003,0.00538080383749151
75.8,0.00423671325391006,0.00442001705653072
75.85,0.0032634106758479,0.00389836703134339
75.9,0.00291495608537928,0.00358537729262631
75.95,0.00277922092915317,0.00339774247070057
76,0.00275386402694378,0.00329613302834197
76.05,0.00279963435394193,0.00325938357507893
76.1,0.00289766048954865,0.00327543911995443
76.15,0.00303778477598604,0.00333746537823421
76.2,0.00321441017861157,0.00344195913171841
76.25,0.0034247421877146,0.00358776800245864
76.3,0.00366795981736656,0.00377557849526078
76.35,0.00394480962417254,0.00400767363170229
76.4,0.00425742348778579,0.00428786506504786
76.45,0.00460927505972186,0.00462155406669928
76.5,0.00500523831536415,0.00501590209168812
76.55,0.00545173526670439,0.00548010730781734
76.6,0.0059569733049667,0.0060257940103382
76.65,0.00653128166320649,0.00666752972330176
76.7,0.00718756348035732,0.00742349092229055
76.75,0.00794188566129805,0.00831630254535731
76.8,0.00881423281754679,0.00937407753411146
76.85,0.00982945251611211,0.010631677827611
76.9,0.0110184136957187,0.0121322026096812
76.95,0.012419382746609,0.0139286750434225
77,0.0140795830213681,0.0160858326099786
77.05,0.0160568290565177,0.0186818103974508
77.1,0.01842099645303,0.0218093181295426
77.15,0.0212548782452033,0.0255756269110339
77.2,0.0246536691408189,0.0301002908459315
77.25,0.0287219163934568,0.0355090669616945
77.3,0.033566354334554,0.0419220994821701
77.35,0.0392828056753176,0.0494344109292219
77.4,0.0459356893798211,0.0580876252680308
77.45,0.0535301985193199,0.0678342982483653
77.5,0.0619803876895799,0.0785006137699924
77.55,0.0710809943391725,0.0897587559233401
77.6,0.0804950237418349,0.101124240790891
77.65,0.0897695200692298,0.111991543767456
77.7,0.098385285930747,0.121710404017289
77.75,0.105833134466718,0.129687760166053
77.8,0.111695939672588,0.135485759725401
77.85,0.115711126255656,0.1388850592681
77.9,0.117796169633091,0.139896799023144
77.95,0.118035147549259,0.138727352249439
78,0.116637877335193,0.135714983544379
78.05,0.113888448052049,0.131260856638422
78.1,0.110097339059034,0.125770844216245
78.15,0.10556504030685,0.11961553030298
78.2,0.100559172521574,0.113108478985342
78.25,0.0953034001465685,0.106498932433602
78.3,0.0899749458710795,0.0999740548322435
78.35,0.0847074834393816,0.0936664187049575
78.4,0.0795968223555904,0.087663598004184
78.45,0.0747075894064249,0.0820178905144877
78.5,0.0700798064574482,0.0767550987011753
78.55,0.0657347810042989,0.0718819140758795
78.6,0.061680069913285,0.0673918228427832
78.65,0.0579134836849619,0.0632696489205945
78.7,0.0544262090230383,0.0594949363893209
78.75,0.0512051758145982,0.0560443935286207
78.8,0.0482348061706629,0.0528936062701425
78.85,0.0454982750709346,0.0500181995382846
78.9,0.0429783951614413,0.047394591707634
78.95,0.0406582186577971,0.0450004559897695
79,0.0385214304542133,0.0428149754556029
79.05,0.036552589972197,0.0408189562739023
79.1,0.0347372655020456,0.0389948463540931
79.15,0.0330620937416032,0.0373266932793623
79.2,0.0315147886103226,0.0358000654546262
79.25,0.0300841168181862,0.0344019530634098
79.3,0.0287598527002071,0.0331206601105524
79.35,0.0275327211367026,0.0319456950239881
79.4,0.0263943346691873,0.0308676646023573
79.45,0.0253371289528171,0.0298781742243283
79.5,0.0243542992725143,0.02896973595384
79.55,0.0234397398419995,0.0281356853104935
79.6,0.0225879869012637,0.0273701069102574
79.65,0.0217941661369703,0.0266677688199914
79.7,0.021053944620557,0.0260240652550379
79.75,0.0203634872380489,0.0254349671294529
79.8,0.0197194174450483,0.0248969799147726
79.85,0.0191187820965555,0.0244071082530389
79.9,0.0185590200536515,0.0239628267843748
79.95,0.0180379342489382,0.0235620566810373
80,0.0175536668907856,0.0232031474209916
