"Freq [GHz]","AbsorbanceTM []","AbsorbanceTE []"
75,0.00360441390719879,0.00362980928615819
75.03,0.00368948592182206,0.00371706855967024
75.06,0.00378243754227914,0.00381246558412141
75.09,0.00388433710272651,0.00391710949795765
75.12,0.00399645089101797,0.0040323159513358
75.15,0.00412028720087876,0.00415965330664603
75.18,0.00425765252172516,0.00430100163487845
75.21,0.0044107238341462,0.00445862871364044
75.24,0.0045821425032283,0.00463528885699793
75.27,0.00477513746324165,0.00483435275771182
75.3,0.00499368861716309,0.00505997997751939
75.33,0.00524274618400344,0.00531735087634833
75.36,0.005528529010007,0.00561298259538889
75.39,0.00585893609285948,0.00595516580517086
75.42,0.00624412323871126,0.00635457800822203
75.45,0.00669732518548438,0.00682515995058319
75.48,0.00723605032201935,0.00738539252387749
75.51,0.00788385428701233,0.00806019780982681
75.54,0.00867303664435015,0.00888383880586108
75.57,0.00964885324218412,0.00990446530924238
75.6,0.0108763014027492,0.0111914662836224
75.63,0.0124514416753203,0.0128477952785873
75.66,0.0145210779952353,0.0150315104370659
75.69,0.0173186491391503,0.0179953035062449
75.72,0.0212335328334139,0.0221633887873803
75.75,0.0269544352348599,0.0282919741269986
75.78,0.035792396361249,0.0378345268715543
75.81,0.050490481805244,0.0538689129859645
75.84,0.0775508205508888,0.0838013030183898
75.87,0.135187080776864,0.1487447832256
75.9,0.285612497902038,0.321552208116131
75.93,0.711166604080105,0.791561142372576
75.96,0.954066566901969,0.89415057909947
75.99,0.420090712135102,0.375858088081248
76.02,0.17565535223974,0.161973543449661
76.05,0.0917062570819946,0.0866030016621583
76.08,0.0558652818630553,0.0535931438113011
76.11,0.0376839080932515,0.0365414308963349
76.14,0.0272964547087476,0.0266726278833811
76.17,0.0208385557889297,0.020478383372191
76.2,0.0165644275852269,0.0163487920158347
76.23,0.0135965340984457,0.0134647943396857
76.26,0.0114560843846212,0.0113752269689674
76.29,0.00986438830876146,0.00981545504738768
76.32,0.00865052590480975,0.00862214984119403
76.35,0.00770505975269364,0.00769018053629644
76.38,0.00695534412043275,0.00694944677239751
76.41,0.00635165407618399,0.0063517808901673
76.44,0.00585904353386468,0.00586321794563205
76.47,0.00545238275458415,0.00545926209507708
76.5,0.0051132333536007,0.00512189344891467
76.53,0.00482782337163024,0.00483762152922129
76.56,0.00458570163932193,0.00459618754961577
76.59,0.00437882326683037,0.00438967992371442
76.62,0.00420091552503943,0.00421191936966159
76.65,0.00404703012929675,0.00405802374769548
76.68,0.00391322191917287,0.00392409508394687
76.71,0.00379631479706966,0.00380699114387739
76.74,0.00369372890033481,0.00370415646479605
76.77,0.00360335139125656,0.00361349582539927
76.8,0.00352343874706185,0.00353327841790663
76.83,0.00345254208848156,0.0034620645131116
76.86,0.00338944955770148,0.00339864879683804
76.89,0.00333314144998043,0.00334201619531038
76.92,0.00328275498408126,0.00329130715197612
76.95,0.00323755642525125,0.00324579012301929
76.98,0.00319691886693363,0.00320483963518514
77.01,0.00316030440444026,0.0031679186655249
77.04,0.00312724974195744,0.00313456440324966
77.07,0.00309735450619608,0.00310437668051489
77.1,0.00307027170556051,0.00307700852079584
77.13,0.00304569990332271,0.00305215838048722
77.16,0.00302337676760034,0.00302956375174968
77.19,0.00300307373384634,0.00300899586620407
77.22,0.00298459157157527,0.00299025529406671
77.25,0.00296775668982796,0.00297316827538963
77.28,0.00295241804918789,0.00295758365282806
77.31,0.00293844457408599,0.00294337030089831
77.34,0.00292572298012717,0.00293041496738089
77.37,0.00291415594680444,0.00291862045793378
77.4,0.00290366057884373,0.00290790410770259
77.43,0.00289416711010204,0.00289819649425738
77.46,0.0028856178119091,0.00288944035404803
77.49,0.0028779660739604,0.00288158967074748
77.52,0.00287117563223716,0.00287460891013069
77.55,0.00286521992193489,0.00286847237961041
77.58,0.00286008153721606,0.00286316369435724
77.61,0.00285575178255848,0.00285867533486961
77.64,0.00285223030295223,0.002855008283288
77.67,0.00284952478238854,0.00285217172795948
77.7,0.00284765070062021,0.00285018282627314
77.73,0.00284663114119943,0.00284906651877537
77.76,0.00284649664418024,0.00284885538799962
77.79,0.00284728509669441,0.00284958955521375
77.82,0.00284904165779698,0.0028513166114883
77.85,0.00285181871277351,0.00285409157830729
77.88,0.00285567585271207,0.00285797689348755
77.91,0.00286067987753036,0.00286304242063817
77.94,0.00286690481806184,0.00286936547772465
77.97,0.00287443197604509,0.00287703088360858
78,0.00288334997925799,0.00288613101978141
