"Freq [GHz]","AbsorbanceTM []","AbsorbanceTE []"
50,0.0119635846679224,0.00780998937900423
50.05,0.012190510075844,0.00792579421800743
50.1,0.012445036200066,0.0080234317132476
50.15,0.012728159100389,0.0081070171391856
50.2,0.0130410956542933,0.00818032102513766
50.25,0.0133853082663726,0.0082468007351264
50.3,0.0137625330754236,0.00830963001873253
50.35,0.0141748122430491,0.00837172676660147
50.4,0.0146245310071919,0.00843577918998895
50.45,0.0151144603008851,0.0085042706324896
50.5,0.0156478058724745,0.00857950321319279
50.55,0.0162282650020938,0.00866362049508229
50.6,0.0168600920904752,0.00875862936850436
50.65,0.0175481746049213,0.00886642134037785
50.7,0.0182981210992897,0.00898879342144843
50.75,0.0191163632820288,0.00912746881106286
50.8,0.0200102743776487,0.00928411758808811
50.85,0.0209883063002205,0.00946037763066887
50.9,0.0220601484053006,0.00965787600656975
50.95,0.0232369107618678,0.00987825109984142
51,0.0245313349118511,0.0101231757700002
51.05,0.0259580348381859,0.0103943818788655
51.1,0.0275337701428219,0.0106936865671391
51.15,0.0292777519363304,0.011023020721495
51.2,0.0312119791820132,0.0113844601447179
51.25,0.0333615984927506,0.0117802600292256
51.3,0.0357552725575336,0.0122128934416457
51.35,0.0384255298708746,0.012685094657533
51.4,0.0414090489430343,0.0131999083464988
51.45,0.044746800473882,0.0137607458042834
51.5,0.0484839268533027,0.014371449670022
51.55,0.052669174715174,0.0150363688626337
51.6,0.0573536080245033,0.0157604458327437
51.65,0.0625882136066018,0.0165493186721482
51.7,0.0684198731368766,0.0174094411673074
51.75,0.0748850385112054,0.0183482245516585
51.8,0.0820003700224033,0.0193742055251989
51.85,0.0897496980758471,0.0204972460981683
51.9,0.0980671517417593,0.0217287720059607
51.95,0.10681743859835,0.0230820578577837
52,0.115776309759948,0.0245725688347919
52.05,0.124617141516414,0.0262183706229464
52.1,0.132912460734601,0.0280406212785304
52.15,0.14016008343888,0.030064160686466
52.2,0.145839472137429,0.0323182147889115
52.25,0.149493353664049,0.0348372320725788
52.3,0.15081542308695,0.0376618674972257
52.35,0.14971539321345,0.0408401216083428
52.4,0.146336594455106,0.0444286255893445
52.45,0.141019549008552,0.0484940288953664
52.5,0.134227013283029,0.0531143821287797
52.55,0.126458338320619,0.058380293079427
52.6,0.118178283158998,0.0643954353847647
52.65,0.109773063365886,0.0712756579988323
52.7,0.101533684872023,0.079145414063517
52.75,0.0936592023755096,0.0881294315802603
52.8,0.0862708989147442,0.098336467300256
52.85,0.0794301668160986,0.109830793397042
52.9,0.0731556436192905,0.122586435929016
52.95,0.0674375263851739,0.13642079135676
53,0.0622485290274422,0.150911217945254
53.05,0.0575517509269345,0.165314348660228
53.1,0.0533060360916868,0.178533292805583
53.15,0.0494694428841927,0.189199379542686
53.2,0.046001364824903,0.19591957586712
53.25,0.042863727548571,0.197656507239472
53.3,0.0400215757965228,0.194084539758583
53.35,0.0374432723868067,0.18571845272944
53.4,0.0351004610177772,0.173729990431256
53.45,0.0329678939685233,0.159566696117116
53.5,0.0310231902095314,0.144581749978796
53.55,0.0292465651942306,0.129814821129177
53.6,0.0276205574191651,0.115938064463235
53.65,0.0261297662446598,0.103306898149188
53.7,0.0247606086696797,0.0920486994459211
53.75,0.0235010984890951,0.0821477090915815
53.8,0.0223406486683247,0.0735097986148547
53.85,0.0212698962584511,0.0660056614903923
53.9,0.0202805483553994,0.0594968461466814
53.95,0.0193652472206899,0.053849982051113
54,0.0185174525592519,0.0489435961873365
54.05,0.0177313389825768,0.0446706035066069
54.1,0.0170017068041701,0.0409384471195539
54.15,0.016323904474874,0.0376680778622406
54.2,0.0156937611412639,0.0347924533109837
54.25,0.0151075279852296,0.0322549244487428
54.3,0.014561827169022,0.0300076952780528
54.35,0.0140536073618499,0.0280104374204427
54.4,0.0135801049605568,0.0262290858685718
54.45,0.013138810237514,0.024634813532278
54.5,0.0127274377548423,0.0232031690305977
54.55,0.0123439004752099,0.0219133573042223
54.6,0.0119862870797972,0.0207476420424492
54.65,0.0116528420715537,0.0196908503861205
54.7,0.0113419483012348,0.018729962665313
54.75,0.0110521116035333,0.0178537724169091
54.8,0.0107819472747024,0.0170526042935865
54.85,0.0105301681589491,0.0163180795844197
54.9,0.0102955741435957,0.0156429208827511
54.95,0.0100770428893326,0.0150207889617306
55,0.00987352164576083,0.0144461461831665
55.05,0.00968402002202151,0.0139141418039792
55.1,0.00950760359940683,0.0134205153930216
55.15,0.00934338828791548,0.0129615152622415
55.2,0.00919053534093839,0.0125338293770082
55.25,0.00904824695356754,0.0121345266667801
55.3,0.00891576237897773,0.0117610070272016
55.35,0.00879235450596871,0.011410958606398
55.4,0.00867732684739819,0.0110823212131299
55.45,0.00857001089532183,0.0107732548844924
55.5,0.00846976380439646,0.0104821128148805
55.55,0.0083759663689148,0.0102074179810796
55.6,0.00828802126359052,0.00994784290914119
55.65,0.00820535152122226,0.00970219211875012
55.7,0.00812739922342731,0.0094693868555904
55.75,0.0080536243838244,0.00924845178447731
55.8,0.00798350400417003,0.00903850336620893
55.85,0.00791653128761505,0.00883873968527427
55.9,0.00785221499352662,0.00864843152963801
55.95,0.0077900789208859,0.00846691455449633
56,0.00772966150828291,0.00829358238646416
56.05,0.00767051553954101,0.00812788054530333
56.1,0.00761220794571915,0.00796930107860361
56.15,0.00755431969452125,0.0078173778189764
56.2,0.00749644575952879,0.00767168218645797
56.25,0.00743819516180766,0.00753181946889392
56.3,0.00737919107805285,0.00739742552299971
56.35,0.00731907100895535,0.00726816384557205
56.4,0.00725748700286466,0.00714372297165267
56.45,0.00719410592987979,0.00702381416174569
56.5,0.00712860980186247,0.00690816934492999
56.55,0.00706069613479132,0.00679653928942925
56.6,0.00699007834939724,0.00668869197493505
56.65,0.00691648620708563,0.006584411144827
56.7,0.00683966627795007,0.00648349501864098
56.75,0.00675938243827456,0.00638575514776096
56.8,0.00667541639457181,0.00629101539875698
56.85,0.00658756823247408,0.00619911105158666
56.9,0.00649565698744237,0.00610988799987466
56.95,0.00639952123605025,0.00602320204342022
57,0.00629901970548663,0.00593891826298998
57.05,0.00619403189969303,0.00585691046908443
57.1,0.00608445874041785,0.00577706071703465
57.15,0.00597022322177299,0.0056992588817506
57.2,0.00585127107658323,0.00562340228570302
57.25,0.00572757145342107,0.00554939537495636
57.3,0.00559911760278209,0.00547714943794075
57.35,0.00546592757109787,0.00540658236249802
57.4,0.00532804490149463,0.00533761842712588
57.45,0.00518553933991295,0.00527018812257529
57.5,0.00503850754536295,0.00520422800026354
57.55,0.00488707380330933,0.00513968054459168
57.6,0.00473139074057449,0.00507649406581956
57.65,0.00457164004102562,0.00501462261132823
57.7,0.00440803316026639,0.00495402589225735
57.75,0.00424081203860138,0.00489466922377257
57.8,0.00407024981038151,0.00483652347626828
57.85,0.00389665150885099,0.00477956503603205
57.9,0.00372035476462695,0.00472377577308425
57.95,0.00354173049686868,0.00466914301504684
58,0.00336118359487081,0.00461565952475096
58.05,0.00317915358907661,0.00456332348074351
58.1,0.00299611530935517,0.00451213845890153
58.15,0.00281257952900693,0.00446211341416813
58.2,0.00262909359224617,0.00441326266090192
58.25,0.00244624202356114,0.00436560585117962
58.3,0.00226464711623409,0.00431916794947607
58.35,0.00208496949839387,0.00427397920342909
58.4,0.00190790867361101,0.00423007510925399
58.45,0.00173420353399767,0.00418749637150373
58.5,0.00156463284279906,0.004146288856132
58.55,0.0014000156839169,0.00410650353647579
58.6,0.00124121187523796,0.00406819643140488
58.65,0.0010891223429077,0.00403142853537652
58.7,0.000944689453248548,0.00399626573991896
58.75,0.000808897298723799,0.00396277874596362
58.8,0.000682771934881976,0.00393104296720015
58.85,0.000567381564331226,0.0039011384239519
58.9,0.000463836663962325,0.00387314962745133
58.95,0.000373290051640662,0.00384716545457764
59,0.00029693688837229,0.00382327901311652
59.05,0.000236014611394775,0.00380158749722281
59.1,0.000191802794465068,0.0037821920337533
59.15,0.000165622930598963,0.00376519751930038
59.2,0.000158838132853667,0.00375071244822456
59.25,0.000172852748585139,0.00373884873195596
59.3,0.000209111882957136,0.00372972151030615
59.35,0.000269100826313262,0.00372344895443533
59.4,0.000354344381634397,0.00372015206282061
59.45,0.000466406086578997,0.00371995444987505
59.5,0.000606887326217387,0.00372298212848743
59.55,0.000777426331372566,0.00372936328657214
59.6,0.00097969705820744,0.00373922805835658
59.65,0.00121540794487296,0.00375270829124474
59.7,0.00148630054076115,0.00376993730870523
59.75,0.00179414800420896,0.00379104966976751
59.8,0.0021407534653779,0.00381618092638136
59.85,0.00252794824993197,0.00384546737855429
59.9,0.00295758996103102,0.00387904582876653
59.95,0.00343156041614157,0.00391705333583936
60,0.00395176343651693,0.00395962696933472
