"Freq [GHz]","AbsorbanceTM []","AbsorbanceTE []"
70,0.0287179759344133,0.0344552363620445
70.05,0.0311125617582949,0.0366199499448797
70.1,0.0329646037936716,0.0379526952803477
70.15,0.034306387480785,0.038600958121681
70.2,0.0351774329204146,0.0387066115990281
70.25,0.0356260021179898,0.0384043852725712
70.3,0.0357103707147021,0.0378204367380937
70.35,0.035499577436407,0.0370710700142249
70.4,0.0350733287734475,0.0362616500668905
70.45,0.0345207597118308,0.0354857611524478
70.5,0.0339378588313319,0.0348246476721308
70.55,0.0334235647607646,0.0343469603328287
70.6,0.0330748054087627,0.0341088088843747
70.65,0.0329810189452331,0.0341540974799251
70.7,0.0332188798687594,0.0345150920198123
70.75,0.0338479767494071,0.0352131428297725
70.8,0.0349080186999183,0.0362594624407734
70.85,0.0364178216881286,0.0376558383153578
70.9,0.0383759380511979,0.0393951450464155
70.95,0.0407624574042104,0.0414615111347948
71,0.0435413136095129,0.0438299947401343
71.05,0.0466624176118837,0.0464656368612454
71.1,0.050063087756352,0.0493218007542441
71.15,0.0536685315678516,0.0523377920934917
71.2,0.057391513438745,0.0554359124116104
71.25,0.0611318052345128,0.0585183589160988
71.3,0.06477654961025,0.0614647646418939
71.35,0.0682032237840984,0.0641316463305105
71.4,0.0712873491505602,0.0663554693820205
71.45,0.0739172291756922,0.067961182749005
71.5,0.0760175997037507,0.0687775325595372
71.55,0.0775832443803666,0.0686589055972341
71.6,0.0787233347749858,0.0675110187776398
71.65,0.0797200461530249,0.0653155144488912
71.7,0.0811159851893852,0.062148551449446
71.75,0.0838747569303298,0.0581936611650864
71.8,0.0897352922713104,0.053763858318881
71.85,0.102090493000711,0.0493858809334558
71.9,0.128351857328817,0.0461186232755724
71.95,0.186561827567988,0.0467160207151509
72,0.318984976553924,0.059404945025924
72.05,0.53245371576235,0.0966202014468016
72.1,0.493788101071033,0.111581034002286
72.15,0.282485819134518,0.0845322030287718
72.2,0.163114087651212,0.0622074427311304
72.25,0.105356437288281,0.0484146495426028
72.3,0.0745982317183851,0.0394160558501297
72.35,0.0563555164376093,0.0330718886417329
72.4,0.0445514142152771,0.0283228941982601
72.45,0.0363858525889887,0.0246134103166538
72.5,0.0304416168495806,0.0216270273119938
72.55,0.0259409291148367,0.0191693138833342
72.6,0.0224269586828336,0.0171128531886694
72.65,0.0196157068690119,0.0153696679734588
72.7,0.0173220042362424,0.013876438795427
72.75,0.0154201770117751,0.0125860810742935
72.8,0.0138219912060485,0.0114626732433486
72.85,0.0124636945887014,0.0104782488706209
72.9,0.0112980857441123,0.00961067823123907
72.95,0.0102894814538995,0.00884221615283476
73,0.00941041941135035,0.00815847444690265
73.05,0.00863943565001679,0.00754767510509602
73.1,0.00795952809275768,0.00700009536061807
73.15,0.00735707031582045,0.00650764770467716
73.2,0.0068210281576131,0.00606355724176466
73.25,0.00634238467989545,0.00566211079230738
73.3,0.00591371143360153,0.00529845987504995
73.35,0.00552884439127255,0.00496846480673729
73.4,0.00518263604106661,0.00466857061570303
73.45,0.00487076376994433,0.00439570786618071
73.5,0.00458958044728242,0.0041472131871505
73.55,0.00433599706178356,0.00392076551692855
73.6,0.0041073899900651,0.00371433495524598
73.65,0.00390152737609784,0.00352614174688026
73.7,0.00371651041914955,0.00335462335541004
73.75,0.0035507262501171,0.00319840784868308
73.8,0.00340280958543093,0.00305629190655965
73.85,0.0032716104808076,0.00292722166827819
73.9,0.00315616520714657,0.00281027441986059
73.95,0.00305566661004641,0.00270463932539888
74,0.00296943075044886,0.00260959924998616
74.05,0.00289686950664036,0.0025245418043861
74.1,0.0028375911133417,0.00244919827682222
74.15,0.00279280313647945,0.00238568009043783
74.2,0.00278525541608232,0.00236206018649943
74.25,0.0045457615857043,0.00370068565359993
74.3,0.00365762312282558,0.00361370135702288
74.35,0.00311106057631805,0.00264864363991146
74.4,0.00307462652249579,0.00252462383288832
74.45,0.00312762673974532,0.00250765965470756
74.5,0.00323267141418981,0.00253815437866678
74.55,0.00338617345932934,0.00260513856527778
74.6,0.00359373534952367,0.00270819668313893
74.65,0.00386638437062581,0.00285100674871663
74.7,0.00422060473959818,0.00303984433626769
74.75,0.00467985460494891,0.00328335701496996
74.8,0.00527736514458599,0.00359283279527045
74.85,0.00606066887435608,0.00398278032216515
74.9,0.00709883889431129,0.0044718106162015
74.95,0.0084942085616726,0.00508388655852576
75,0.0104016904958517,0.00585006274965039
75.05,0.0140260572009486,0.00670739966010792
75.1,0.0187386268998437,0.00808187283097506
75.15,0.0254031741060157,0.0102075039514583
75.2,0.0356907131219693,0.0134854914117328
75.25,0.0528317911040705,0.0186375693791907
75.3,0.0819855084913784,0.027032336181952
75.35,0.12341495148019,0.0413908170478685
75.4,0.149134243083404,0.0671440904365984
75.45,0.132804020455383,0.113054507675326
75.5,0.105040326638727,0.176801105512095
75.55,0.0889412189343982,0.20394571484106
75.6,0.0908084041954115,0.175891004113662
75.65,0.146362092707666,0.20918468594506
75.7,0.490344785148763,0.833294455400314
75.75,0.0328447652324462,0.0904347881383814
75.8,0.019612883100867,0.0387941071902127
75.85,0.0174926250782628,0.0165633749369691
75.9,0.0140848327256412,0.0129613413415621
75.95,0.00996737638845269,0.0173294779420066
76,0.00776633905469348,0.0145715507289558
76.05,0.00727268297862615,0.0125768742870663
76.1,0.00746389103697553,0.0111775700733213
76.15,0.00788211431393937,0.0101913601213158
76.2,0.00845188192893087,0.00950321163386114
76.25,0.00930779352451683,0.0090458946839812
76.3,0.0108525585318371,0.00879573590599569
76.35,0.014237127297572,0.00881014942856451
76.4,0.0237959430627349,0.00946888600614926
76.45,0.0674975421654972,0.0137253122048606
76.5,0.72681620304932,0.0937552304048275
76.55,0.162466160993814,0.0325356489412624
76.6,0.0479849678352158,0.0167375197372971
76.65,0.0277207880226708,0.0139019602599929
76.7,0.0209636614042226,0.0131392561774452
76.75,0.0181250320697638,0.0130608792697648
76.8,0.0168824060237875,0.0133152849847633
76.85,0.0164403316472636,0.0137798875563356
76.9,0.0164648463123538,0.0144040744272814
76.95,0.0167970542509523,0.0151652142530565
77,0.0173556518588101,0.0160530338991485
77.05,0.0180974546748384,0.0170629449129509
77.1,0.0189990157599133,0.018192651730971
77.15,0.0200470107867534,0.0194400858284514
77.2,0.0212326855665007,0.0208019099881772
77.25,0.0225483582224126,0.0222722888748565
77.3,0.0239850440408622,0.0238418215104871
77.35,0.0255307561475856,0.0254966362495035
77.4,0.0271692827322042,0.0272177129545628
77.45,0.0288793813972508,0.0289805360736916
77.5,0.0306344123554272,0.0307551966417848
77.55,0.032402471671112,0.0325070455839843
77.6,0.0341470876881338,0.0341979506293809
77.65,0.0358285090523406,0.0357881266295111
77.7,0.037405545323079,0.0372384065283194
77.75,0.0388378325188783,0.0385127206931936
77.8,0.0400883060970343,0.039580484365323
77.85,0.0411255981795589,0.0404185810372342
77.9,0.0419260575647077,0.0410126834755823
77.95,0.0424751323743369,0.0413577634257809
78,0.0427679509732409,0.0414577776506639
78.05,0.0428090649235909,0.0413246463967459
78.1,0.0426114464430863,0.0409767307974671
78.15,0.0421949319758337,0.0404370532485312
78.2,0.0415843544148229,0.0397314916736443
78.25,0.0408076063622944,0.0388871296028098
78.3,0.0398938362914353,0.0379308786518239
78.35,0.0388719164935329,0.0368884256931151
78.4,0.0377692543886017,0.0357835050719384
78.45,0.0366109606085833,0.0346374613006928
78.5,0.0354193452529691,0.0334690492551588
78.55,0.0342136891463919,0.0322944135833337
78.6,0.0330102272985408,0.0311271924782545
78.65,0.0318222828886574,0.0299786991791182
78.7,0.0306604976647675,0.0288581445321954
78.75,0.02953311511957,0.0277728737061608
78.8,0.0284462837103631,0.0267285986606917
78.85,0.0274043572646939,0.025729614798769
78.9,0.0264101778746733,0.0247789953792252
78.95,0.0254653328735457,0.0238787609270251
79,0.0245703820484813,0.0230300233326246
79.05,0.0237250543546613,0.0222331058654289
79.1,0.0229284153750888,0.0214876411940862
79.15,0.0221790079134687,0.0207926499138127
79.2,0.0214749686621697,0.0201466021854331
79.25,0.0208141240519235,0.0195474650104485
79.3,0.020194068308102,0.0189927374797474
79.35,0.0196122265160704,0.0184794760971396
79.4,0.0190659052050961,0.0180043120265763
79.45,0.0185523326434848,0.017563461865688
79.5,0.0180686907271941,0.0171527333215271
79.55,0.0176121400517905,0.0167675269583568
79.6,0.0171798394992116,0.0164028350115113
79.65,0.0167689614400813,0.0160532381059837
79.7,0.0163767034572386,0.015712900590147
79.75,0.0160002973297064,0.0153755650860999
79.8,0.0156370158757588,0.0150345467665743
79.85,0.0152841781388041,0.0146827277941151
79.9,0.0149391533039211,0.0143125522960592
79.95,0.0145993636541167,0.0139160221972443
80,0.0142622868115528,0.0134846941903169
